!  2-Port S-parameters saved by WinCal
! VAR MeasName=S-Parameters (RAW_DATA) read from VNA (MS4647B)
! VAR MeasDate=09-Dec-21 16:08:55
! VAR NAME=L1
! VAR FILENAME=L1.S2P
! VAR DATE=09-Dec-21 16:08:55
! VAR PHYS_PORTS=1,2
! VAR ObjTypeName=DATASET
! VAR IndexType=Frequency
!
# Hz S RI R 50
200000000.000 -1.6201786697E-002 -8.5380367935E-002  -2.1182245016E-001 -6.9995659590E-001  -3.3020284772E-001 -6.6403847933E-001  +2.6066798717E-002 -5.4046191275E-002 
400000000.000 +1.2252353132E-001 -8.1107378006E-002  -4.8545467854E-001 +4.8779115081E-001  -3.3240830898E-001 +6.1405986547E-001  -1.2651443481E-001 -7.9723456874E-003 
600000000.000 +5.2019160241E-002 -6.8496972322E-002  +5.3758257627E-001 +3.0027973652E-001  +6.0064405203E-001 -1.0167501122E-001  -3.5606209189E-002 +5.1607437432E-002 
800000000.000 +9.5080345869E-002 -2.4071063101E-001  -8.0971181393E-002 -6.5687537193E-001  -4.9355700612E-001 -4.1493639350E-001  +1.9057980180E-001 +8.6979389191E-002 
1000000000.000 +8.0179519951E-002 -1.8855281174E-001  -4.0999522805E-001 +5.7927745581E-001  +1.3863624632E-001 +6.6355091333E-001  +1.5650826693E-001 -5.8378078043E-002 
1200000000.000 +1.1509408802E-001 -2.5108611584E-001  +7.3097562790E-001 +5.2722197026E-002  +3.9869832993E-001 -5.5204296112E-001  -1.1999169737E-001 -1.7788806558E-001 
1400000000.000 +1.4809674025E-001 -1.7745025456E-001  -4.1877913475E-001 -6.0295915604E-001  -6.6971236467E-001 +1.0096718371E-001  -5.4889265448E-002 -6.7351952195E-002 
1600000000.000 +7.4912637472E-002 +1.3828404248E-001  -1.7926803231E-001 +6.1009323597E-001  +4.3554830551E-001 +3.5370674729E-001  -1.3431853056E-001 -7.0949748158E-002 
1800000000.000 +1.2664273381E-001 -7.1122488007E-003  +5.1056730747E-001 -1.4127346873E-001  -2.6319332421E-002 -4.6527493000E-001  +4.3674580753E-002 +1.3329976797E-001 
2000000000.000 +5.8746047318E-002 +1.5248878859E-002  -3.5736760497E-001 -2.8912317753E-001  -2.8700539470E-001 +2.6510950923E-001  +1.3050439954E-001 -4.0232382715E-002 
2200000000.000 +1.5771900117E-001 -1.5849669278E-001  -7.1517042816E-002 +3.9709588885E-001  +3.5770836473E-001 +7.2566218674E-002  +3.2327976078E-002 -2.6356235147E-001 
2400000000.000 -7.8179597855E-002 -1.2308683991E-001  +3.0141258240E-001 -3.1867188215E-001  -2.9696545005E-001 -2.8014969826E-001  -1.1762671173E-001 +7.7143199742E-002 
2600000000.000 +5.4185904562E-002 +1.1216446012E-001  -3.7592121959E-001 -6.7507618666E-001  -5.0675082207E-001 +1.5362013876E-001  +1.8605476245E-002 -5.5517807603E-002 
2800000000.000 +5.8995429426E-002 -2.2230637074E-001  +8.9077484608E-001 +7.7830725349E-003  -4.3174657226E-001 -5.8089202642E-001  -1.2605632842E-001 +1.0926494002E-001 
3000000000.000 +1.4159655571E-001 +1.7700324953E-001  -5.3166389465E-001 +6.8334430456E-001  +3.9611303806E-001 -6.2247467041E-001  -5.8035928756E-002 -1.2997528911E-001 
3200000000.000 -4.6734184027E-002 +1.6126964986E-001  -1.7832361162E-001 -7.9941707850E-001  +6.7844867706E-001 +1.5601615608E-001  +1.6298418865E-002 -8.6512967944E-002 
3400000000.000 +1.8450081348E-001 +1.4709158242E-001  +7.5618946552E-001 +3.0267107487E-001  +1.4445019886E-002 +7.3673409224E-001  -1.6071088612E-001 -2.5249611586E-002 
3600000000.000 +1.0354457796E-001 -3.3212780952E-002  -7.8130596876E-001 +3.5517546535E-001  -7.9175007343E-001 +3.3863759041E-001  -1.7007085681E-001 +1.9247055752E-004 
3800000000.000 -2.1241621673E-001 -2.1123926342E-001  +3.7708759308E-001 -8.0899930000E-001  -4.1760569811E-001 -7.0856368542E-001  +1.4867757261E-001 +1.0490259528E-001 
4000000000.000 +1.6760176048E-002 +9.9377833307E-002  +3.6048573256E-001 +8.2045441866E-001  +5.0577193499E-001 -5.7402765751E-001  -8.9224334806E-003 -7.1022503078E-002 
4200000000.000 +7.3562012985E-003 +4.3587279506E-003  -8.4674453735E-001 -3.7625136971E-001  +7.5717449188E-001 +4.1140341759E-001  -5.9527780861E-002 -2.6469683275E-002 
4400000000.000 -3.9786774665E-002 -9.0428791940E-002  +8.2794213295E-001 -2.8127855062E-001  -2.0238479972E-001 +8.8119089603E-001  +7.0469483733E-002 +7.9690121114E-002 
4600000000.000 +1.4902580297E-003 +1.6079705209E-002  -3.9420568943E-001 +7.7713835239E-001  -8.4119921923E-001 -1.4239917696E-001  -4.0373932570E-002 +5.4765105247E-002 
4800000000.000 -2.5818008929E-002 +1.5777457505E-002  -1.6178216040E-001 -8.5468596220E-001  -1.7612894997E-002 -8.1946617365E-001  -4.4823091477E-002 -5.6719980203E-003 
5000000000.000 +2.0050786436E-001 +9.2992849648E-002  +6.1671340466E-001 +5.2201145887E-001  +8.1351011992E-001 -2.7336195111E-001  -2.0137694478E-001 +1.1970783584E-002 
5200000000.000 +2.6189887524E-001 -1.4420710504E-001  -8.0142122507E-001 -1.7445879057E-002  +2.8234595060E-001 +8.6680549383E-001  +1.1842208356E-001 +2.1578373015E-001 
5400000000.000 -6.5680198371E-002 -6.6722020507E-002  +5.9065550566E-001 -5.0582849979E-001  -7.2317188978E-001 +3.6101412773E-001  +1.0762000829E-001 -6.6445857286E-002 
5600000000.000 +5.6909248233E-003 +6.3956521451E-002  -1.3355866075E-001 +7.1645009518E-001  -5.3058218956E-001 -5.6813955307E-001  +4.1163276881E-002 +2.2463016212E-002 
5800000000.000 -7.6916962862E-002 +1.3744194806E-001  -3.6990064383E-001 -5.8112877607E-001  +5.3872424364E-001 -5.6542277336E-001  -1.8648609519E-001 +2.3211034015E-002 
6000000000.000 +1.1422574520E-002 +8.0945314839E-003  +6.3242888451E-001 +1.8546514213E-001  +5.9880405664E-001 +4.8939979076E-001  -1.0594081134E-001 +2.8151297010E-003 
6200000000.000 +6.0353551060E-002 -8.6977815954E-004  -6.2111622095E-001 +1.8810877204E-001  -4.4171789289E-001 +5.4832595587E-001  +1.1748552322E-001 +9.3706287444E-002 
6400000000.000 -1.3908310235E-001 +1.5002645552E-001  +2.5074085593E-001 -5.7342976332E-001  -6.5696871281E-001 -2.1071530879E-001  -2.4841900170E-001 -9.5728598535E-002 
6600000000.000 +1.5025345981E-001 +5.0890639424E-002  +4.1493885219E-002 +6.3584250212E-001  +2.5436457992E-001 -6.4449399710E-001  -2.9822399840E-002 +9.5026291907E-002 
6800000000.000 +2.4608934298E-002 -8.9011546224E-003  -4.0797328949E-001 -4.8543253541E-001  +6.6685581207E-001 +2.0243662596E-001  +1.3433397980E-003 +3.3256173134E-002 
7000000000.000 +3.0210277066E-002 -6.5580010414E-002  +6.1256796122E-001 +5.3529765457E-002  +4.6493448317E-002 +6.1613130569E-001  +8.7904565036E-002 -8.2594998181E-002 
7200000000.000 -1.3006401062E-001 -1.2703382410E-002  -5.3351831436E-001 +2.7593213320E-001  -5.7532840967E-001 +8.7198875844E-002  +1.0524061322E-001 -6.3762746751E-002 
7400000000.000 -1.5578594804E-001 +4.0262874216E-002  +2.4928745627E-001 -5.1384705305E-001  -1.1563103646E-001 -5.7539790869E-001  -2.6096984744E-001 -6.1349989846E-003 
7600000000.000 +1.1952517182E-001 +7.2149358690E-002  +1.2989218533E-001 +5.6355375051E-001  +5.4178559780E-001 -1.6459591687E-001  +1.1364936084E-001 +5.5631842464E-002 
7800000000.000 -2.3115070164E-001 -6.8842694163E-002  -4.2841726542E-001 -3.5710501671E-001  +2.3460832238E-001 +4.4801992178E-001  -7.4588827789E-002 -5.8144800365E-002 
8000000000.000 +6.4818777144E-002 -2.8887478635E-002  +5.3641027212E-001 +5.1853924990E-002  -4.6424221992E-001 +2.4119833112E-001  -4.1534537449E-003 -4.3729073368E-003 
8200000000.000 -9.5278322697E-002 +7.8957155347E-002  -4.0329170227E-001 +2.9887637496E-001  -2.8179189563E-001 -4.0521451831E-001  -5.1351394504E-002 +6.9158613682E-002 
8400000000.000 +9.2384122312E-002 +1.2769780587E-003  +2.1043100953E-001 -4.1534307599E-001  +3.4198161960E-001 -3.0579563975E-001  +1.2870515697E-002 +1.0416550562E-002 
8600000000.000 +1.6504932940E-001 -3.0903285369E-002  +1.3223297894E-001 +3.8597586751E-001  +2.9300197959E-001 +2.8046098351E-001  +1.7755903304E-001 -9.6047848463E-002 
8800000000.000 -9.1519802809E-002 -7.2070740163E-002  -3.5670810938E-001 -2.1142302454E-001  -1.9675388932E-001 +3.7282553315E-001  -1.3699820638E-001 -5.1105837338E-003 
9000000000.000 -3.2952941954E-002 +2.0751839504E-002  +3.7957137823E-001 -2.2789631039E-002  -3.5385328531E-001 -1.8643246591E-001  -8.8381320238E-003 -1.7718948424E-002 
9200000000.000 -1.0245990753E-001 +4.4968862087E-002  -2.7186706662E-001 +2.6435813308E-001  +1.4058311284E-001 -3.4839010239E-001  +2.2358495742E-002 +1.4682680368E-001 
9400000000.000 +6.3483640552E-002 +2.8335375246E-003  +2.4265978485E-002 -3.6021548510E-001  +3.5772353411E-001 +5.8994743973E-002  -1.2981371023E-002 -4.4998519123E-002 
9600000000.000 -8.2767516375E-002 -8.7032631040E-002  +1.7942003906E-001 +3.0132693052E-001  -5.2192602307E-002 +3.5489770770E-001  -3.4471027553E-002 +1.5614345670E-002 
9800000000.000 +1.3591675088E-002 -3.2305341214E-002  -3.1773018837E-001 -1.2376467884E-001  -3.5834515095E-001 +2.3710292589E-004  -3.6125384271E-002 +4.9028396606E-002 
10000000000.000 -1.8969235942E-002 +5.0520103425E-002  +3.0818760395E-001 -9.8129183054E-002  +6.5521173179E-002 -3.2475966215E-001  -8.5262311623E-003 +3.9240848273E-002 
10200000000.000 +2.9788138345E-002 +3.7539146841E-002  -2.2477898002E-001 +2.2652198374E-001  +2.9044046998E-001 -1.2766964734E-001  -3.9176521823E-003 -9.3441046774E-002 
10400000000.000 +1.3475839794E-001 -9.0683940798E-003  +4.2064752430E-002 -2.8981265426E-001  +9.8243065178E-002 +3.0606573820E-001  -7.6695665717E-002 -6.5188907087E-002 
10600000000.000 +7.8187631443E-003 -7.1212507784E-002  +1.6054484248E-001 +2.5301766396E-001  -3.0122998357E-001 +5.5800545961E-002  -5.1305484027E-002 +1.1846772581E-001 
10800000000.000 -7.3931440711E-002 +1.4845303260E-002  -2.4722573161E-001 -1.3720506430E-001  -1.3475920260E-001 -2.6414892077E-001  +2.8649054468E-002 -4.5171376318E-002 
11000000000.000 +8.1926710904E-002 +2.5148628629E-004  +2.8892496228E-001 -2.1812131628E-002  +2.2971673310E-001 -2.0157623291E-001  +7.5489662588E-002 +1.6872737557E-002 
11200000000.000 -1.7747741193E-002 +9.1746553779E-002  -1.9986063242E-001 +1.8104583025E-001  +2.0840884745E-001 +2.1364182234E-001  -9.8638422787E-002 -4.9546170980E-002 
11400000000.000 +2.2302395664E-003 -3.2778199762E-002  +6.3041113317E-002 -2.5912091136E-001  -2.0132851601E-001 +2.2234095633E-001  +2.9041936621E-002 -6.4844656736E-003 
11600000000.000 -7.7052358538E-003 -1.6842590645E-002  +1.3729773462E-001 +2.0928324759E-001  -2.1771134436E-001 -1.6602906585E-001  +1.2418157421E-002 +1.3119889796E-001 
11800000000.000 -9.9780730903E-002 +8.7141580880E-002  -2.4158337712E-001 -6.7809104919E-002  +1.3816265762E-001 -2.4029330909E-001  -3.2138668001E-002 -1.6456164420E-001 
12000000000.000 +1.5491798520E-001 +5.6687942706E-003  +2.3112289608E-001 -4.3085653335E-002  +2.1584405005E-001 +1.4773237705E-001  -6.0953605920E-002 +2.5352222845E-002 
12200000000.000 +1.0930703022E-002 -7.0120356977E-002  -1.7982149124E-001 +1.4064462483E-001  -1.4462783933E-001 +2.0947277546E-001  -6.6010482609E-002 +6.1116352677E-002 
12400000000.000 +2.7919590473E-002 +3.3373419195E-002  +8.2648664713E-002 -2.1747231483E-001  -2.1612145007E-001 -1.4090175927E-001  +4.3084755540E-002 -3.5151347518E-002 
12600000000.000 -7.0339662489E-004 +2.4436805397E-002  +1.1653952301E-001 +1.9532836974E-001  +9.5434911549E-002 -2.3939780891E-001  -4.1281010956E-002 +3.6427736282E-002 
12800000000.000 -5.8594304137E-003 +4.9074221402E-002  -2.1295754611E-001 -5.3645420820E-002  +2.5305929780E-001 +1.9573753700E-002  +9.8916450515E-003 -1.1133329570E-001 
13000000000.000 +7.7181942761E-002 +4.3106548488E-002  +1.9836817682E-001 -7.2032101452E-002  +1.0092151351E-003 +2.4051535130E-001  -6.5853141248E-002 +1.1019818485E-001 
13200000000.000 -1.3907155395E-001 -1.4209119976E-001  -1.7672377825E-001 +1.1591554433E-001  -2.0877727866E-001 -7.2445847094E-002  +7.2695747018E-002 -1.0609009117E-001 
13400000000.000 -3.5185962915E-002 +1.1106145382E-001  +1.1359010637E-001 -1.6746230423E-001  +8.7186463177E-002 -2.1556226909E-001  +4.4529981911E-002 -6.9071762264E-002 
13600000000.000 -2.8382394463E-002 +1.1795802973E-002  +4.4650051743E-002 +2.0840859413E-001  +2.4255104363E-001 +3.9186798036E-002  -9.3543425202E-002 -1.0321601294E-002 
13800000000.000 +2.7953078970E-002 -3.7493567914E-002  -1.7091110349E-001 -1.2890957296E-001  +6.4736999571E-002 +2.1963863075E-001  +6.4441561699E-002 -4.6277526766E-002 
14000000000.000 +1.4957346953E-002 -5.7777590118E-003  +2.0350050926E-001 -1.5025001951E-002  -1.9526888430E-001 +9.1205984354E-002  +6.4418494701E-002 +5.7003024966E-002 
14200000000.000 -1.2481994182E-001 -3.6008186638E-002  -1.6596762836E-001 +1.1928243190E-001  -1.1594433337E-001 -1.7618022859E-001  +2.0424410701E-002 -1.0193952173E-001 
14400000000.000 +6.4918778837E-002 +2.7010137215E-002  +7.8180998564E-002 -1.8264064193E-001  +2.0166970789E-001 -7.3119141161E-002  -1.7786305398E-002 +3.9627231658E-002 
14600000000.000 +2.9362663627E-002 -4.2286936194E-002  +4.7305226326E-002 +1.8923796713E-001  +6.0571104288E-002 +1.8668653071E-001  +4.8999223858E-002 +1.1619520374E-002 
14800000000.000 -3.1159345061E-002 -3.7439562380E-002  -1.6473352909E-001 -1.1414588243E-001  -1.6524691880E-001 +1.1541287601E-001  +5.0892505795E-002 +2.8358165175E-002 
15000000000.000 +1.4078632928E-002 -5.4842758924E-002  +1.9739623368E-001 -2.4082150310E-002  -1.3057844341E-001 -1.4831902087E-001  -9.6239065751E-003 -7.8280270100E-002 
15200000000.000 -4.0259353817E-002 +1.0485392064E-001  -1.5342386067E-001 +1.3234484196E-001  +1.3880956173E-001 -1.2975674868E-001  -1.0127821937E-002 +3.6692023277E-002 
15400000000.000 +6.3441030681E-002 -9.1393915936E-003  +1.9579496235E-002 -1.9800306857E-001  +1.2787465751E-001 +1.3553389907E-001  +2.8706999496E-002 +8.1906698644E-002 
15600000000.000 +9.2169325799E-003 -4.5921925455E-002  +9.5159903169E-002 +1.8438117206E-001  -9.2598937452E-002 +1.6752958298E-001  +7.9979849979E-003 -7.3093898594E-002 
15800000000.000 -9.3867285177E-003 +3.6322467029E-002  -1.7165486515E-001 -1.2905587256E-001  -1.6815041006E-001 -8.7899297476E-002  +5.5281139910E-002 +8.4876433015E-002 
16000000000.000 +3.5701349378E-002 -4.8080403358E-002  +2.0432648063E-001 -6.5831276588E-003  +1.1874070764E-001 -1.4171355963E-001  -1.1145512573E-002 -6.0675129294E-002 
16200000000.000 -1.8803697079E-002 +7.4092604220E-002  -1.6216607392E-001 +1.2617152929E-001  +1.5216460824E-001 +8.8652983308E-002  -3.1430978328E-002 +6.7297421396E-002 
16400000000.000 +5.0238203257E-002 -2.6862343657E-004  +3.0819376931E-002 -1.9250196218E-001  -6.6964074969E-002 +1.5614546835E-001  +5.1819387823E-002 -3.4343775362E-002 
16600000000.000 -4.2666777968E-002 -4.4012416154E-002  +5.9831254184E-002 +1.7912496626E-001  -1.6886264086E-001 -3.3374756575E-002  -4.4677127153E-003 +2.0755359903E-002 
16800000000.000 +3.5346730147E-004 +7.9715654254E-002  -1.2860918045E-001 -1.4327426255E-001  +2.6990035549E-002 -1.6437174380E-001  -3.0987357721E-002 +8.7504051626E-002 
17000000000.000 -1.1708529666E-002 +5.7181008160E-003  +1.8532097340E-001 +3.0845338479E-002  +1.5992875397E-001 +2.1427828819E-002  +2.8295420110E-002 -8.6945004761E-002 
17200000000.000 +1.6694454476E-002 -2.3297241423E-003  -1.3269557059E-001 +1.2311353534E-001  -7.4802753516E-003 +1.5752094984E-001  +1.3409374282E-002 +1.3680605590E-001 
17400000000.000 +9.8283169791E-003 +7.5766094029E-002  +1.9732655957E-002 -1.6527922451E-001  -1.4743925631E-001 +9.4052581117E-003  -5.6529935449E-002 -2.3181373253E-002 
17600000000.000 -7.0208966732E-002 -4.7477751970E-002  +8.9684382081E-002 +1.4457637072E-001  -4.7294575721E-002 -1.4046294987E-001  +4.0640816092E-002 +5.0016506575E-003 
17800000000.000 -2.0147725940E-002 +5.8381251991E-002  -1.4320731163E-001 -7.5784772635E-002  +1.2640491128E-001 -6.4831785858E-002  -1.6176179051E-002 +7.1200557053E-002 
18000000000.000 +1.8868099898E-002 -1.6495694581E-004  +1.6354681551E-001 -2.5080960244E-002  +7.0902265608E-002 +1.2519209087E-001  -5.1163826138E-002 -8.0689348280E-002 
18200000000.000 -3.9242412895E-002 -1.1095412076E-001  -1.2931278348E-001 +9.3538530171E-002  -1.2435501814E-001 +5.9223815799E-002  -5.2219334990E-002 +9.7482152283E-002 
18400000000.000 -3.8710366935E-002 +4.0215671062E-002  +1.7067044973E-002 -1.5889640152E-001  -8.5541680455E-002 -1.0771317035E-001  +1.7143490259E-003 +2.1046647802E-002 
18600000000.000 +1.4318839647E-002 -8.2270026207E-002  +1.0356588662E-001 +1.2396690995E-001  +1.0360845923E-001 -8.1484414637E-002  -7.3612913489E-002 -4.6536218375E-002 
18800000000.000 -1.1516421102E-002 +3.0610157177E-002  -1.4576995373E-001 -3.8419123739E-002  +1.1185346544E-001 +8.1563591957E-002  +5.0874450244E-004 +7.7260928228E-003 
19000000000.000 +8.3781205118E-002 -1.0477253236E-002  +1.5325352550E-001 -3.9122782648E-002  -8.2696117461E-002 +1.0724266618E-001  -5.7188168168E-002 -3.6439344287E-002 
19200000000.000 -1.0357862338E-002 -1.1699292809E-001  -9.6754603088E-002 +1.1296479404E-001  -9.9162138999E-002 -7.6645664871E-002  -3.3173356205E-002 +3.3629275858E-002 
19400000000.000 +4.6380508691E-002 +1.3255308568E-001  +1.9982483238E-002 -1.6049316525E-001  +6.8731397390E-002 -1.1559934169E-001  +8.7063476443E-002 -9.4700612128E-002 
19600000000.000 +5.0091031939E-002 -3.2928388566E-002  +8.1676058471E-002 +1.2969674170E-001  +1.2224914879E-001 +4.9351286143E-002  -1.1291697621E-001 +1.8207619723E-004 
19800000000.000 +4.2167704552E-002 +1.6449674964E-002  -1.6042956710E-001 -4.7318629920E-002  -5.8717500418E-002 +1.3656769693E-001  +1.5884129331E-002 -4.1964668781E-002 
20000000000.000 -1.3006658293E-002 +2.7346223593E-002  +1.4589473605E-001 -5.8584149927E-002  -1.0575160384E-001 -8.7927639484E-002  -4.1000484489E-003 +3.9763875306E-002 
20200000000.000 +6.5787248313E-003 -6.8846739829E-002  -1.0394149274E-001 +1.0852877051E-001  -4.3088275939E-002 -1.2908560038E-001  -5.0607718527E-002 -2.1661628038E-002 
20400000000.000 -2.4818660691E-002 +1.0071148723E-001  +3.3703979105E-002 -1.4604665339E-001  +1.2835192680E-001 -4.5104198158E-002  +4.0154359303E-003 -8.3845727146E-002 
20600000000.000 +1.7700244207E-003 +2.1013475955E-002  +6.5612047911E-002 +1.2728273869E-001  +5.0803840160E-002 +1.1786157638E-001  -3.0198112130E-002 +6.8056344986E-002 
20800000000.000 +4.8216011375E-002 +2.1899442654E-003  -1.3479530811E-001 -6.2939532101E-002  -1.2674690783E-001 +3.7670221180E-002  -4.1594460607E-002 -4.6082179993E-002 
21000000000.000 -7.3181256652E-002 -7.9363938421E-003  +1.2160703540E-001 -4.0026351810E-002  +3.3418135718E-003 -1.1839196086E-001  +1.9111892208E-002 -4.2352966964E-002 
21200000000.000 -2.1985139698E-002 +7.1435801685E-002  -6.8027354777E-002 +1.1534757167E-001  +1.1585800350E-001 -1.4628972858E-002  -1.2047011405E-001 +1.4507119544E-002 
21400000000.000 -2.1415866911E-002 -4.5333426446E-002  -1.8967259675E-003 -1.3654483855E-001  +3.1606659293E-002 +1.1490623653E-001  +8.9284628630E-002 -2.7247020975E-002 
21600000000.000 -1.5911193565E-002 +4.4850107282E-002  +7.7483169734E-002 +1.0616671294E-001  -8.3617389202E-002 +7.3548182845E-002  -5.9962306172E-002 -4.3889842927E-003 
21800000000.000 -4.8808667809E-002 -4.2037691921E-002  -1.0536132753E-001 -7.0098221302E-002  -8.6977288127E-002 -7.0020586252E-002  -8.2725314423E-003 -8.2208886743E-002 
22000000000.000 -2.7679225430E-002 -7.2089582682E-002  +1.1964255571E-001 -1.1458151042E-002  +5.4363593459E-002 -8.5194319487E-002  +1.6770219430E-002 +3.4953765571E-003 
22200000000.000 +4.9861162901E-002 +9.9186725914E-002  -9.8488561809E-002 +8.7047860026E-002  +9.4555385411E-002 +5.8488562703E-002  -2.7512984350E-002 +1.3653781265E-002 
22400000000.000 -2.8589563444E-002 -1.2900154293E-001  +3.5740904510E-002 -1.1203926057E-001  -4.6337883919E-002 +8.7569005787E-002  +1.1316890270E-001 -1.1750022322E-001 
22600000000.000 +5.3055217722E-004 -6.8164374679E-003  +3.8048107177E-002 +1.2440677732E-001  -1.0103749484E-001 -3.3460494131E-002  -7.3594883084E-002 +2.8831113130E-002 
22800000000.000 +2.3391613737E-002 +1.8318630755E-002  -9.4280987978E-002 -7.3500171304E-002  +2.9284125194E-002 -1.0379584879E-001  +2.9218224809E-002 -6.9004446268E-003 
