!  2-Port S-parameters saved by WinCal
! VAR MeasName=S-Parameters (RAW_DATA) read from VNA (MS4647B)
! VAR MeasDate=09-Dec-21 16:13:14
! VAR NAME=L0
! VAR FILENAME=L0.S2P
! VAR DATE=09-Dec-21 16:13:14
! VAR PHYS_PORTS=1,2
! VAR ObjTypeName=DATASET
! VAR IndexType=Frequency
!
# Hz S RI R 50
200000000.000 -1.6025293618E-002 -8.5093341768E-002  -2.1031497419E-001 -7.0109540224E-001  -3.2870623469E-001 -6.6499161720E-001  +2.6552785188E-002 -5.3683612496E-002 
400000000.000 +1.2299795449E-001 -8.0420121551E-002  -4.8755761981E-001 +4.8600295186E-001  -3.3609536290E-001 +6.1295574903E-001  -1.2639637291E-001 -8.7224878371E-003 
600000000.000 +5.1281094551E-002 -6.9190353155E-002  +5.3583490849E-001 +3.0468362570E-001  +6.0174924135E-001 -9.6782781184E-002  -3.4472823143E-002 +5.1873758435E-002 
800000000.000 +9.5781557262E-002 -2.4115535617E-001  -7.4928812683E-002 -6.5825253725E-001  -4.8941233754E-001 -4.1999271512E-001  +1.9128279388E-001 +8.7912656367E-002 
1000000000.000 +7.8933008015E-002 -1.8864968419E-001  -4.1763469577E-001 +5.7474881411E-001  +1.3050034642E-001 +6.6560155153E-001  +1.5469864011E-001 -5.8512937278E-002 
1200000000.000 +1.1730515212E-001 -2.5182783604E-001  +7.3080962896E-001 +6.2943138182E-002  +4.0671870112E-001 -5.4601454735E-001  -1.1986090988E-001 -1.8053458631E-001 
1400000000.000 +1.5002533793E-001 -1.7641475797E-001  -4.0926137567E-001 -6.1050778627E-001  -6.7174011469E-001 +8.9548699558E-002  -5.5663067847E-002 -6.7553050816E-002 
1600000000.000 +7.0803932846E-002 +1.3814923167E-001  -1.9122007489E-001 +6.0737866163E-001  +4.2935478687E-001 +3.6235132813E-001  -1.3223981857E-001 -7.1322701871E-002 
1800000000.000 +1.2930433452E-001 -6.2953177840E-003  +5.1407510042E-001 -1.3007971644E-001  -1.6052745283E-002 -4.6606990695E-001  +4.3268185109E-002 +1.3544203341E-001 
2000000000.000 +5.7245049626E-002 +1.2417599559E-002  -3.5037970543E-001 -2.9828277230E-001  -2.9385468364E-001 +2.5811770558E-001  +1.3093763590E-001 -4.3336063623E-002 
2200000000.000 +1.5990594029E-001 -1.5531150997E-001  -8.2076244056E-002 +3.9513832331E-001  +3.5573557019E-001 +8.1734962761E-002  +3.4818232059E-002 -2.6268407702E-001 
2400000000.000 -8.1404484808E-002 -1.2408627570E-001  +3.1092226505E-001 -3.1041860580E-001  -2.8920841217E-001 -2.8917896748E-001  -1.1804460734E-001 +7.9647950828E-002 
2600000000.000 +5.4486788809E-002 +1.1471962929E-001  -3.5540249944E-001 -6.8648076057E-001  -5.1206415892E-001 +1.3744075596E-001  +1.8954878673E-002 -5.7402264327E-002 
2800000000.000 +5.8156125247E-002 -2.1989218891E-001  +8.9104193449E-001 +3.8368497044E-002  -4.1204297543E-001 -5.9558176994E-001  -1.2502154708E-001 +1.0783318430E-001 
3000000000.000 +1.3669978082E-001 +1.8333943188E-001  -5.5637311935E-001 +6.6489040852E-001  +4.1847929358E-001 -6.0863029957E-001  -5.5346313864E-002 -1.3364699483E-001 
3200000000.000 -5.9298157692E-002 +1.7014077306E-001  -1.4497549832E-001 -8.0659735203E-001  +6.7158436775E-001 +1.8417520821E-001  +2.3308534175E-002 -9.3653500080E-002 
3400000000.000 +1.7434534431E-001 +1.5161806345E-001  +7.4544614553E-001 +3.3317542076E-001  -1.5147889964E-002 +7.3731416464E-001  -1.5534491837E-001 -3.2538585365E-002 
3600000000.000 +1.0331465304E-001 -3.2808799297E-002  -7.9654562473E-001 +3.2104197145E-001  -8.0650687218E-001 +3.0511528254E-001  -1.6960622370E-001 -5.9404862113E-003 
3800000000.000 -2.0105969906E-001 -2.1297243237E-001  +4.1375580430E-001 -7.9210275412E-001  -3.8519725204E-001 -7.2784167528E-001  +1.4632278681E-001 +1.0399146378E-001 
4000000000.000 +2.0612735301E-002 +9.7491323948E-002  +3.2057121396E-001 +8.3741712570E-001  +5.3335011005E-001 -5.4968833923E-001  -8.8974433020E-003 -6.9010570645E-002 
4200000000.000 +9.5421047881E-003 -3.4713433124E-003  -8.2820504904E-001 -4.1945666075E-001  +7.3675256968E-001 +4.4947189093E-001  -5.7161282748E-002 -2.1661393344E-002 
4400000000.000 -4.1559536010E-002 -9.4811156392E-002  +8.4295666218E-001 -2.3691885173E-001  -2.4973461032E-001 +8.6998468637E-001  +6.9811120629E-002 +8.1635393202E-002 
4600000000.000 -1.3017078163E-003 +2.0787987858E-002  -4.3721821904E-001 +7.5555163622E-001  -8.3377790451E-001 -1.8811823428E-001  -4.3935243040E-002 +4.7499801964E-002 
4800000000.000 -2.7158552781E-002 +2.7396757156E-002  -1.1061190069E-001 -8.6425298452E-001  +3.1781170517E-002 -8.1998884678E-001  -5.0956547260E-002 -1.8499411643E-002 
5000000000.000 +2.0508448780E-001 +1.0571420193E-001  +5.8394497633E-001 +5.5856817961E-001  +8.2845395803E-001 -2.2389213741E-001  -2.0537143946E-001 +5.6085255928E-003 
5200000000.000 +2.6485463977E-001 -1.2788234651E-001  -7.9997891188E-001 -6.6758170724E-002  +2.2768472135E-001 +8.8357818127E-001  +1.1602689326E-001 +2.1882878244E-001 
5400000000.000 -6.5542437136E-002 -5.5133130401E-002  +6.2479275465E-001 -4.6735087037E-001  -7.4743950367E-001 +3.1405726075E-001  +9.9237732589E-002 -5.7718850672E-002 
5600000000.000 +3.0561452731E-003 +6.0171164572E-002  -1.8179011345E-001 +7.0664465427E-001  -4.9198663235E-001 -6.0361975431E-001  +3.5086575896E-002 +2.4802373722E-002 
5800000000.000 -8.2039706409E-002 +1.2741093338E-001  -3.2919859886E-001 -6.0580122471E-001  +5.7667535543E-001 -5.2690100670E-001  -1.8443493545E-001 +1.2429338880E-002 
6000000000.000 +2.4089906365E-003 +4.3962197378E-003  +6.1920088530E-001 +2.3080889881E-001  +5.6344676018E-001 +5.3250002861E-001  -1.0245583951E-001 -6.9697126746E-003 
6200000000.000 +4.7983873636E-002 -3.1912578270E-003  -6.3496464491E-001 +1.4066924155E-001  -4.8305365443E-001 +5.1393067837E-001  +1.1800747365E-001 +8.4344826639E-002 
6400000000.000 -1.4699490368E-001 +1.5132515132E-001  +2.9385864735E-001 -5.5267632008E-001  -6.3865214586E-001 -2.6052573323E-001  -2.5477460027E-001 -1.0660089552E-001 
6600000000.000 +1.4840357006E-001 +5.4764773697E-002  -8.5541959852E-003 +6.3775682449E-001  +3.0494582653E-001 -6.2337023020E-001  -3.1694013625E-002 +8.4198892117E-002 
6800000000.000 +2.4658460170E-002 -1.2121098116E-003  -3.6749011278E-001 -5.1765787601E-001  +6.4854365587E-001 +2.5704923272E-001  +4.9487832002E-003 +3.6191686988E-002 
7000000000.000 +3.3063590527E-002 -6.3553176820E-002  +6.0665464401E-001 +1.0438635200E-001  -4.2999745347E-003 +6.1897462606E-001  +9.3094490469E-002 -7.2181761265E-002 
7200000000.000 -1.2853771448E-001 -2.0927676931E-002  -5.5591320992E-001 +2.2975771129E-001  -5.8115857840E-001 +3.8264825940E-002  +1.0833194852E-001 -6.1164356768E-002 
7400000000.000 -1.5476784110E-001 +2.6151411235E-002  +2.9373282194E-001 -4.9106243253E-001  -6.5460585058E-002 -5.8476150036E-001  -2.5576055050E-001 -1.2736652978E-002 
7600000000.000 +1.1861384660E-001 +5.4258726537E-002  +7.6990783215E-002 +5.7550668716E-001  +5.5660867691E-001 -1.1369709671E-001  +1.1801612377E-001 +4.4195726514E-002 
7800000000.000 -2.3191282153E-001 -8.0394811928E-002  -3.9283928275E-001 -3.9563596249E-001  +1.9104580581E-001 +4.6835401654E-001  -7.3807984591E-002 -6.4979799092E-002 
8000000000.000 +6.5355658531E-002 -3.1604651362E-002  +5.2965021133E-001 +1.0297334939E-001  -4.8570236564E-001 +1.9617880881E-001  -1.0913186707E-002 -8.8996095583E-003 
8200000000.000 -9.4238676131E-002 +8.5438981652E-002  -4.3147322536E-001 +2.5752615929E-001  -2.4054871500E-001 -4.3140208721E-001  -5.3659502417E-002 +6.9576770067E-002 
8400000000.000 +9.3700625002E-002 +1.2663320638E-002  +2.5161632895E-001 -3.9156287909E-001  +3.7124165893E-001 -2.6911535859E-001  +1.8081218004E-002 +1.4920498244E-002 
8600000000.000 +1.6520434618E-001 -2.2368477657E-002  +9.2998363078E-002 +3.9789324999E-001  +2.6370450854E-001 +3.0897489190E-001  +1.8608897924E-001 -8.7447158992E-002 
8800000000.000 -8.9413948357E-002 -7.1568511426E-002  -3.3314034343E-001 -2.4822281301E-001  -2.3518295586E-001 +3.5065937042E-001  -1.3226707280E-001 -4.9973011483E-004 
9000000000.000 -2.8233481571E-002 +1.2063895352E-002  +3.7985441089E-001 +1.8060619012E-002  -3.3169111609E-001 -2.2334851325E-001  -1.1380900629E-002 -2.0169895142E-002 
9200000000.000 -9.9724583328E-002 +3.2924205065E-002  -3.0086234212E-001 +2.3410616815E-001  +1.7866018414E-001 -3.3222788572E-001  +1.6565253958E-002 +1.4110247791E-001 
9400000000.000 +6.6995315254E-002 -6.4529534429E-003  +6.5739616752E-002 -3.5508728027E-001  +3.4880444407E-001 +9.9796868861E-002  -2.1197821945E-002 -4.7626208514E-002 
9600000000.000 -8.0121986568E-002 -9.2259265482E-002  +1.4400242269E-001 +3.1994298100E-001  -9.2032440007E-002 +3.4675756097E-001  -4.3165169656E-002 +1.3526910916E-002 
9800000000.000 +1.7222002149E-002 -2.8227530420E-002  -3.0104029179E-001 -1.6052465141E-001  -3.5607069731E-001 -4.1719529778E-002  -3.9678476751E-002 +4.4969558716E-002 
10000000000.000 -2.0476017147E-002 +5.8997284621E-002  +3.1862798333E-001 -5.9712257236E-002  +1.0450191796E-001 -3.1503635645E-001  -2.7548542712E-003 +3.5226296633E-002 
10200000000.000 +2.9630072415E-002 +4.7696720809E-002  -2.4967910349E-001 +1.9714303315E-001  +3.0270183086E-001 -9.1175422072E-002  +3.2034059986E-003 -1.0191554576E-001 
10400000000.000 +1.3764151931E-001 -4.4506415725E-004  +7.7030390501E-002 -2.8315493464E-001  +6.0398839414E-002 +3.1638029218E-001  -7.2225347161E-002 -7.1729280055E-002 
10600000000.000 +1.1508195661E-002 -6.4665026963E-002  +1.2768843770E-001 +2.7195253968E-001  -3.0645847321E-001 +1.7294831574E-002  -5.1032546908E-002 +1.1522411555E-001 
10800000000.000 -7.0592433214E-002 +1.7746338621E-002  -2.2747246921E-001 -1.6864226758E-001  -9.9540866911E-002 -2.7981451154E-001  +2.5853006169E-002 -4.7363992780E-002 
11000000000.000 +8.1475585699E-002 +1.4971614582E-003  +2.8963094950E-001 +1.6352239996E-002  +2.5430732965E-001 -1.7006462812E-001  +7.2400443256E-002 +1.7951810732E-002 
11200000000.000 -2.4547988549E-002 +8.8638439775E-002  -2.2292260826E-001 +1.5301749110E-001  +1.7839084566E-001 +2.4009524286E-001  -9.9211946130E-002 -4.5609317720E-002 
11400000000.000 -5.4398244247E-003 -3.9323624223E-002  +9.7802333534E-002 -2.4850000441E-001  -2.2980159521E-001 +1.9314077497E-001  +2.8212320060E-002 -6.6645382904E-003 
11600000000.000 -1.2054509483E-002 -2.0078670233E-002  +1.0660327226E-001 +2.2642050683E-001  -1.9218385220E-001 -1.9482935965E-001  +1.5768924728E-002 +1.2418055534E-001 
11800000000.000 -1.0052833706E-001 +8.9000768960E-002  -2.2947947681E-001 -1.0123763233E-001  +1.7061449587E-001 -2.1850544214E-001  -2.6530480012E-002 -1.7447707057E-001 
12000000000.000 +1.5650367737E-001 +1.1921635829E-002  +2.3496426642E-001 -9.9447071552E-003  +1.9287636876E-001 +1.7678970098E-001  -5.7480078191E-002 +1.9299009815E-002 
12200000000.000 +1.1883570813E-002 -5.8106165379E-002  -1.9920180738E-001 +1.1370050162E-001  -1.7407537997E-001 +1.8756930530E-001  -6.7517422140E-002 +5.4853897542E-002 
12400000000.000 +2.2410480306E-002 +4.3761249632E-002  +1.1424332857E-001 -2.0230767131E-001  -1.9217240810E-001 -1.7138022184E-001  +4.3695330620E-002 -4.0310170501E-002 
12600000000.000 -8.2365758717E-003 +2.7906907722E-002  +8.5876680911E-002 +2.1108275652E-001  +1.3054744899E-001 -2.2247150540E-001  -4.0037237108E-002 +3.6875005811E-002 
12800000000.000 -1.4737322927E-002 +4.4564269483E-002  -2.0250377059E-001 -8.5336916149E-002  +2.4747900665E-001 +5.7598918676E-002  +1.3329280540E-002 -1.1171694100E-001 
13000000000.000 +6.8223632872E-002 +3.4167770296E-002  +2.0901358128E-001 -3.9930105209E-002  -3.7427380681E-002 +2.3958608508E-001  -5.7264123112E-002 +1.0460546613E-001 
13200000000.000 -1.4018440247E-001 -1.5555571020E-001  -1.9012735784E-001 +8.5683211684E-002  -1.9228488207E-001 -1.0268478096E-001  +8.7880373001E-002 -1.0440337658E-001 
13400000000.000 -3.4068774432E-002 +1.0223577917E-001  +1.3967931271E-001 -1.4900702238E-001  +1.2081871182E-001 -2.0097765326E-001  +5.7083431631E-002 -6.1556562781E-002 
13600000000.000 -2.9855318367E-002 +8.2972133532E-003  +9.9730733782E-003 +2.1311976016E-001  +2.3305541277E-001 +7.8493468463E-002  -8.5365913808E-002 -4.9045979977E-003 
13800000000.000 +2.5570906699E-002 -3.8464985788E-002  -1.4740324020E-001 -1.5527507663E-001  +2.7825621888E-002 +2.2731810808E-001  +6.9659881294E-002 -4.1138630360E-002 
14000000000.000 +1.8710462376E-002 -8.3785643801E-003  +2.0280888677E-001 +1.9392004237E-002  -2.0749489963E-001 +5.6901756674E-002  +6.5810859203E-002 +6.7815177143E-002 
14200000000.000 -1.1680729687E-001 -3.7346895784E-002  -1.8493741751E-001 +9.0928301215E-002  -8.5783980787E-002 -1.9436870515E-001  +1.8265420571E-002 -8.8769711554E-002 
14400000000.000 +7.4730202556E-002 +2.6231134310E-002  +1.0967345536E-001 -1.6563455760E-001  +2.1148446202E-001 -3.6076918244E-002  -2.2375492379E-002 +4.9743566662E-002 
14600000000.000 +3.8729339838E-002 -4.2788065970E-002  +1.3929552399E-002 +1.9360728562E-001  +2.7163803577E-002 +1.9327442348E-001  +4.8174217343E-002 +2.0377095789E-002 
14800000000.000 -2.3554395884E-002 -3.6389905959E-002  -1.4276567101E-001 -1.4195975661E-001  -1.8374796212E-001 +8.5031643510E-002  +5.3333245218E-002 +3.5161212087E-002 
15000000000.000 +1.5849860385E-002 -5.2196055651E-002  +1.9874824584E-001 +1.1477680877E-002  -1.0169652104E-001 -1.6937366128E-001  -1.0239869356E-002 -7.5455211103E-002 
15200000000.000 -4.4585920870E-002 +1.0766541213E-001  -1.7493896186E-001 +1.0198599845E-001  +1.6027316451E-001 -1.0215117782E-001  -1.4771646820E-002 +3.8576241583E-002 
15400000000.000 +5.7705167681E-002 -6.2377061695E-003  +5.4981119931E-002 -1.9099538028E-001  +1.0116186738E-001 +1.5613488853E-001  +2.2912884131E-002 +8.6020581424E-002 
15600000000.000 +7.8356461599E-003 -4.3318271637E-002  +5.9292219579E-002 +1.9931028783E-001  -1.2249704450E-001 +1.4774848521E-001  +3.6078278208E-004 -6.6364750266E-002 
15800000000.000 -9.3773659319E-003 +4.3122570962E-002  -1.4405077696E-001 -1.6014645994E-001  -1.4850543439E-001 -1.1903900653E-001  +4.7290805727E-002 +9.2371828854E-002 
16000000000.000 +3.4068569541E-002 -4.2079176754E-002  +2.0159009099E-001 +3.2125134021E-002  +1.4314375818E-001 -1.1657407880E-001  -1.7031127587E-002 -5.9106726199E-002 
16200000000.000 -2.0026601851E-002 +7.6713494956E-002  -1.8363122642E-001 +9.2415295541E-002  +1.3222104311E-001 +1.1640583724E-001  -3.2161045820E-002 +6.8154916167E-002 
16400000000.000 +5.0441622734E-002 +1.7750108382E-003  +6.7943014205E-002 -1.8280124664E-001  -9.6258826554E-002 +1.3997884095E-001  +4.8595428467E-002 -3.3609069884E-002 
16600000000.000 -4.9759190530E-002 -4.4526230544E-002  +2.3351522163E-002 +1.8844112754E-001  -1.5958848596E-001 -6.6549621522E-002  -1.2695332989E-002 +2.0662168041E-002 
16800000000.000 -5.6014093570E-003 +7.3557429016E-002  -9.6980087459E-002 -1.6509871185E-001  +5.8870166540E-002 -1.5472686291E-001  -3.8443457335E-002 +8.2116939127E-002 
17000000000.000 -1.3594536111E-002 +7.0072920062E-004  +1.7599640787E-001 +6.7720532417E-002  +1.5294246376E-001 +5.3220640868E-002  +1.9559696317E-002 -8.8962696493E-002 
17200000000.000 +9.2243934050E-003 -1.7932814080E-003  -1.5636961162E-001 +9.3550741673E-002  -4.0276519954E-002 +1.5361167490E-001  +2.8326553293E-003 +1.3822139800E-001 
17400000000.000 +7.4580922956E-004 +7.0195712149E-002  +5.1895026118E-002 -1.5650875866E-001  -1.4490249753E-001 -2.0151840523E-002  -6.7811056972E-002 -2.7453498915E-002 
17600000000.000 -7.3607876897E-002 -5.9059776366E-002  +5.5390637368E-002 +1.6157425940E-001  -1.4860232361E-002 -1.4805117249E-001  +3.3492382616E-002 -3.8388022222E-003 
17800000000.000 -1.5992140397E-002 +5.0126451999E-002  -1.2459982187E-001 -1.0328918695E-001  +1.3681522012E-001 -3.7552207708E-002  -2.0406994969E-002 +6.2423676252E-002 
18000000000.000 +2.5541491807E-002 -9.0590808541E-003  +1.6703893244E-001 +1.2497099116E-002  +4.1570175439E-002 +1.3960461318E-001  -5.7675775141E-002 -9.3420572579E-002 
18200000000.000 -2.6092566550E-002 -1.1762848496E-001  -1.4238353074E-001 +6.2844447792E-002  -1.3055609167E-001 +3.1246265396E-002  -5.2156995982E-002 +8.0288484693E-002 
18400000000.000 -2.0327238366E-002 +3.6004994065E-002  +5.4274577647E-002 -1.5590308607E-001  -6.0900233686E-002 -1.2838870287E-001  +2.1844694857E-003 +3.4413335379E-003 
18600000000.000 +2.6907028630E-002 -7.6546952128E-002  +7.2694033384E-002 +1.4079424739E-001  +1.1653061956E-001 -5.5844150484E-002  -6.9482825696E-002 -5.9847757220E-002 
18800000000.000 -4.7320416197E-003 +3.8552079350E-002  -1.3567836583E-001 -7.1304850280E-002  +9.2053927481E-002 +1.0635365546E-001  +3.6232075654E-003 -6.4185168594E-003 
19000000000.000 +8.7300166488E-002 +2.3456262425E-003  +1.5506139398E-001 -3.0810269527E-003  -1.0294168442E-001 +8.3649553359E-002  -4.5924931765E-002 -4.6377360821E-002 
19200000000.000 -9.9979247898E-003 -1.0212166607E-001  -1.2234614789E-001 +9.1154560447E-002  -8.1957064569E-002 -9.9105015397E-002  -1.8825426698E-002 +2.8177788481E-002 
19400000000.000 +3.9564721286E-002 +1.4848956466E-001  +5.7869568467E-002 -1.4699578285E-001  +9.3255624175E-002 -9.2967711389E-002  +1.0444881022E-001 -9.5839731395E-002 
19600000000.000 +4.2613636702E-002 -2.2445611656E-002  +5.1874075085E-002 +1.4532542229E-001  +1.0939601809E-001 +7.5074113905E-002  -1.0046524554E-001 -3.5413908772E-003 
19800000000.000 +3.2432198524E-002 +2.1357828751E-002  -1.4455781877E-001 -8.5557870567E-002  -9.0769469738E-002 +1.1871965230E-001  +2.4153098464E-002 -4.8030901700E-002 
20000000000.000 -2.0367128775E-002 +2.9626954347E-002  +1.5492297709E-001 -2.2008577362E-002  -8.1662192941E-002 -1.1022516340E-001  +1.9386680797E-003 +3.6658301950E-002 
20200000000.000 -1.4974498190E-003 -6.9567933679E-002  -1.2836413085E-001 +8.0948501825E-002  -1.0759118013E-002 -1.3709983230E-001  -4.3332323432E-002 -3.0222455040E-002 
20400000000.000 -3.3043924719E-002 +9.6604414284E-002  +6.7676782608E-002 -1.3185153902E-001  +1.3399776816E-001 -1.2324154377E-002  +1.5710184351E-002 -8.8154688478E-002 
20600000000.000 -5.3950478323E-003 +1.5886817127E-002  +3.3747985959E-002 +1.4027321339E-001  +2.1724240854E-002 +1.2769696116E-001  -2.0394176245E-002 +6.0673736036E-002 
20800000000.000 +3.7971969694E-002 -6.1502153985E-003  -1.1520601809E-001 -9.7636364400E-002  -1.3432963192E-001 +3.2380344346E-003  -3.4065190703E-002 -5.9746976942E-002 
21000000000.000 -7.8416332603E-002 -1.9430723041E-002  +1.2463115901E-001 -9.4421720132E-003  +3.0727395788E-002 -1.1137524992E-001  +3.1471416354E-002 -5.2786987275E-002 
21200000000.000 -2.5148695335E-002 +5.6471396238E-002  -9.8363637924E-002 +9.6654005349E-002  +1.1925408244E-001 +1.6194272786E-002  -1.0794478655E-001 +5.7047624141E-003 
21400000000.000 -1.8646534532E-002 -5.9207867831E-002  +3.2245934010E-002 -1.2959250808E-001  +1.3310193317E-003 +1.1661513150E-001  +1.0310892016E-001 -2.9293039814E-002 
21600000000.000 -1.0576241650E-002 +3.1204141676E-002  +4.9607552588E-002 +1.2568332255E-001  -1.0221935809E-001 +5.1609128714E-002  -4.5610811561E-002 -7.2175469249E-003 
21800000000.000 -3.4925185144E-002 -4.8225361854E-002  -8.0296337605E-002 -9.3346439302E-002  -6.3062213361E-002 -8.8282361627E-002  +6.1672013253E-003 -7.9796813428E-002 
22000000000.000 -1.4616955072E-002 -7.5037866831E-002  +1.2160515785E-001 +1.8472032622E-002  +7.5245693326E-002 -7.0975363255E-002  +3.0606253073E-002 +5.1684970967E-003 
22200000000.000 +6.4141348004E-002 +9.9332183599E-002  -1.1903737485E-001 +5.3437624127E-002  +7.2401471436E-002 +8.3365797997E-002  -9.4405608252E-003 +2.1367212757E-002 
22400000000.000 -1.5979532152E-002 -1.2632504106E-001  +6.1608325690E-002 -1.0038353503E-001  -6.5978892148E-002 +7.4082836509E-002  +1.2237970531E-001 -1.0710580647E-001 
22600000000.000 +1.3371466659E-002 +1.4535584487E-003  -6.4890955400E-005 +1.3059562445E-001  -8.7060354650E-002 -6.1786066741E-002  -6.9728791714E-002 +3.9769828320E-002 
22800000000.000 +2.8869051486E-002 +2.7281641960E-002  -7.1191392839E-002 -9.5163404942E-002  +5.5148839951E-002 -9.1913275421E-002  +3.2972175628E-002 +1.2525016209E-003 
