!  2-Port S-parameters saved by WinCal
! VAR MeasName=S-Parameters (RAW_DATA) read from VNA (MS4647B)
! VAR MeasDate=09-Dec-21 16:43:40
! VAR NAME=L5
! VAR FILENAME=L5.S2P
! VAR DATE=09-Dec-21 16:43:40
! VAR PHYS_PORTS=1,2
! VAR ObjTypeName=DATASET
! VAR IndexType=Frequency
!
# Hz S RI R 50
200000000.000 -2.0648919046E-002 -8.8552393019E-002  -2.4342547357E-001 -6.8410581350E-001  -3.5928598046E-001 -6.4279878139E-001  +1.6912061721E-002 -6.0851570219E-002 
400000000.000 +1.1490502954E-001 -9.4152659178E-002  -4.3012076616E-001 +5.2524971962E-001  -2.6942220330E-001 +6.3520485163E-001  -1.2812891603E-001 +5.9487223625E-003 
600000000.000 +6.7467935383E-002 -5.8776248246E-002  +5.7042902708E-001 +2.1693404019E-001  +5.7373505831E-001 -1.8607865274E-001  -5.6343402714E-002 +5.1110852510E-002 
800000000.000 +8.5135772824E-002 -2.3034779727E-001  -2.0074823499E-001 -6.2334835529E-001  -5.5750465393E-001 -3.1167125702E-001  +1.7422972620E-001 +6.9552108645E-002 
1000000000.000 +1.0323699564E-001 -1.9164772332E-001  -2.5853785872E-001 +6.5006452799E-001  +2.8694066405E-001 +6.0239571333E-001  +1.9050548971E-001 -6.4603164792E-002 
1200000000.000 +8.5506275296E-002 -2.2697024047E-001  +7.1200245619E-001 -1.5106241405E-001  +2.3039221764E-001 -6.3703978062E-001  -1.0677505285E-001 -1.3269484043E-001 
1400000000.000 +1.0361471027E-001 -1.8611064553E-001  -5.8298128843E-001 -4.3036043644E-001  -5.9278577566E-001 +3.0698096752E-001  -3.9168924093E-002 -6.7023307085E-002 
1600000000.000 +1.4639604092E-001 +1.1794452369E-001  +4.9767069519E-002 +6.2181591988E-001  +5.2424395084E-001 +1.7246781290E-001  -1.6652780771E-001 -5.0972677767E-002 
1800000000.000 +7.8892908990E-002 +3.4941409831E-004  +4.0097799897E-001 -3.3331927657E-001  -2.1264813840E-001 -4.0737000108E-001  +3.3345691860E-002 +9.6610464156E-002 
2000000000.000 +1.0787302256E-001 +4.4573608786E-002  -4.3759369850E-001 -9.2106439173E-002  -1.3044089079E-001 +3.5759535432E-001  +1.5078540146E-001 +1.0984184220E-002 
2200000000.000 +8.9431256056E-002 -1.8885435164E-001  +1.3174575567E-001 +3.8521632552E-001  +3.4933289886E-001 -1.0949104279E-001  -1.6560632735E-002 -2.5370332599E-001 
2400000000.000 -1.8999937922E-002 -1.3608974218E-001  +8.5578516126E-002 -4.1432783008E-001  -3.8825476170E-001 -7.8775845468E-002  -1.3444760442E-001 +3.3513460308E-002 
2600000000.000 +3.1896386296E-002 +8.1001996994E-002  -6.8168485165E-001 -3.3854839206E-001  -3.2672473788E-001 +4.0687879920E-001  +3.1408522278E-002 -2.8911719099E-002 
2800000000.000 +4.5113004744E-002 -2.5553449988E-001  +6.9965744019E-001 -5.2164053917E-001  -6.8148803711E-001 -1.9671304524E-001  -1.2141744047E-001 +1.3367655873E-001 
3000000000.000 +1.2464243174E-001 +2.9675718397E-002  +1.4437970705E-002 +8.6138677597E-001  -8.2470409572E-002 -7.2569733858E-001  -4.7186259180E-002 -4.6567004174E-002 
3200000000.000 -5.7965875603E-003 -1.0198237747E-001  -6.6128730774E-001 -4.0905833244E-001  +5.6100898981E-001 -3.5440406203E-001  +2.2572277114E-002 +8.4881506860E-002 
3400000000.000 +2.5340098143E-001 -2.1320678294E-002  +7.5742220879E-001 -3.0386483669E-001  +5.2316552401E-001 +5.1870471239E-001  -1.3933601975E-001 +1.2163805962E-001 
3600000000.000 +9.1982454062E-002 -3.2018173486E-002  -2.5918292999E-001 +7.9945659637E-001  -2.8160846233E-001 +7.9780143499E-001  -9.0635687113E-002 +6.5851248801E-002 
3800000000.000 -3.1087845564E-001 -5.8928567916E-002  -3.6298859119E-001 -8.0033206940E-001  -7.9421359301E-001 -1.3438983262E-001  +1.8890312314E-001 +9.2339038849E-002 
4000000000.000 +1.8703937531E-002 +1.6585168242E-001  +8.5310041904E-001 +2.0334894955E-001  -1.4817774296E-001 -7.3509126902E-001  -4.3906390667E-002 -8.5101224482E-002 
4200000000.000 +8.9761972427E-002 +1.1226797104E-001  -7.6840662956E-001 +4.6613663435E-001  +7.4433296919E-001 -3.7481850386E-001  -1.4725312591E-001 -4.3972477317E-002 
4400000000.000 +2.1146513522E-002 -8.5353642702E-002  +1.9366393983E-001 -8.3110159636E-001  +6.2699604034E-001 +6.2328457832E-001  +5.9596072882E-002 +5.3852505982E-002 
4600000000.000 -3.3404756337E-002 -6.3375994563E-002  +4.6820312738E-001 +7.0979660749E-001  -5.3191995621E-001 +6.4444553852E-001  +8.4130674601E-002 +6.7139692605E-002 
4800000000.000 -1.6959646344E-001 -5.8742765337E-002  -7.9782450199E-001 -2.2416684031E-001  -7.0513498783E-001 -3.2707378268E-001  +1.5258781612E-001 -1.6516780481E-002 
5000000000.000 -1.1144518852E-002 +9.0233363211E-002  +7.0488107204E-001 -3.5439097881E-001  +6.9637440145E-002 -8.4276503325E-001  -8.8602803648E-002 -1.9537642598E-002 
5200000000.000 +2.7676861733E-002 -1.9085390866E-001  -3.0800864100E-001 +7.2751843929E-001  +8.9255762100E-001 +5.0956364721E-002  +9.6195943654E-002 +1.7359785736E-001 
5400000000.000 -2.1357980371E-001 -1.0229891539E-001  -2.6539179683E-001 -6.9973379374E-001  +8.5167676210E-002 +7.7603471279E-001  +1.7981275916E-002 -2.0744371414E-001 
5600000000.000 +5.5059872568E-002 +4.3596066535E-002  +6.3269418478E-001 +3.2228967547E-001  -6.7823070288E-001 +3.3946427703E-001  +2.3968802765E-002 -7.4855849147E-002 
5800000000.000 +7.1877323091E-002 +8.1835985184E-002  -6.4296305180E-001 +2.2423177958E-001  -4.2934355140E-001 -6.4659368992E-001  -3.4857824445E-002 +7.3808424175E-002 
6000000000.000 +8.6793072522E-002 -9.7830675542E-002  +3.0639836192E-001 -5.6476092339E-001  +5.8469510078E-001 -4.6584707499E-001  +1.3616222888E-002 +7.7394619584E-002 
6200000000.000 +9.6434757113E-002 -1.4735993743E-001  +8.6257949471E-002 +6.1151379347E-001  +4.5365858078E-001 +4.9774989486E-001  +2.2766464949E-001 +1.0620636493E-001 
6400000000.000 -1.5775172412E-001 +4.1200000793E-002  -5.3889691830E-001 -2.8954035044E-001  -2.5307592750E-001 +6.2020117044E-001  -1.0554519296E-001 -1.7919364572E-001 
6600000000.000 +1.1134512722E-001 +2.9510241002E-002  +6.2193900347E-001 -5.1571070217E-003  -6.1241757870E-001 -2.8600406647E-001  +1.0664374381E-001 +7.8728824854E-002 
6800000000.000 -7.0811405778E-002 +5.7115163654E-003  -4.7315004468E-001 +3.9269667864E-001  +1.9993817806E-001 -6.4216256142E-001  -3.8786001503E-002 +7.7556304634E-002 
7000000000.000 +3.6155551206E-003 -3.6950346082E-002  +3.2449267805E-002 -5.9880930185E-001  +6.0112136602E-001 -6.2496256083E-002  -2.6038998738E-002 -1.7632653937E-002 
7200000000.000 -2.6387535036E-002 -1.2375654653E-002  +3.1430518627E-001 +4.9755966663E-001  +1.3203915954E-001 +5.5219346285E-001  +8.6997151375E-002 -2.1564068273E-002 
7400000000.000 -3.0673139263E-003 +3.0722070485E-002  -5.3118914366E-001 -1.8274089694E-001  -5.5333876610E-001 +1.7947724462E-001  -1.8332299590E-001 +4.2092885822E-002 
7600000000.000 +2.9012966156E-001 +1.8777906895E-002  +5.1634538174E-001 -1.9643403590E-001  -2.3037010431E-001 -4.8885476589E-001  +2.3645804822E-001 +6.8050220609E-002 
7800000000.000 -1.1530397832E-001 -1.1563841999E-001  -2.3740695417E-001 +4.7779330611E-001  +3.6586913466E-001 -3.1598019600E-001  -1.7044602428E-003 -7.2880357504E-002 
8000000000.000 +9.0719483793E-002 -2.3693097755E-002  -8.6504302919E-002 -5.1549780369E-001  +3.4394207597E-001 +3.7530040741E-001  +1.4634532854E-002 -7.5331240892E-002 
8200000000.000 -1.5507999063E-001 +1.0759852827E-001  +3.9162781835E-001 +2.8162124753E-001  -2.8958249092E-001 +3.7715411186E-001  -6.7649923265E-002 +4.8465855420E-002 
8400000000.000 +1.1073187925E-002 +4.9797881395E-002  -4.4134423137E-001 -5.0703682005E-002  -3.8725370169E-001 -2.0286616683E-001  +4.3810001807E-004 +6.5833702683E-002 
8600000000.000 +1.0044457018E-001 +1.1804863811E-002  +2.9875940084E-001 -2.7227100730E-001  +1.3976667821E-001 -3.7488877773E-001  +1.4762742817E-001 +9.7883976996E-003 
8800000000.000 -9.3019574881E-002 -5.5905316025E-002  -3.8255263120E-002 +3.9901280403E-001  +4.0686011314E-001 +1.9371757284E-002  -1.5553830564E-001 +4.9750756472E-002 
9000000000.000 +4.7634605318E-002 +9.3639828265E-003  -1.9529287517E-001 -3.1033349037E-001  +5.2554779686E-003 +3.8610917330E-001  -3.0206651427E-003 -4.9484513700E-002 
9200000000.000 -1.0943669826E-002 +1.5528581105E-002  +3.5652714968E-001 +1.0479090363E-001  -3.6567002535E-001 +4.8972357064E-002  +3.7395145744E-002 +8.6926348507E-002 
9400000000.000 +1.2547850609E-001 -1.6383506358E-002  -2.9960072041E-001 +1.6596201062E-001  -1.3695298135E-001 -3.1470516324E-001  -3.4982118756E-002 -9.8671987653E-002 
9600000000.000 -4.3018680066E-002 -1.0157602280E-001  +1.3055118918E-001 -3.1230917573E-001  +3.0550128222E-001 -1.6330185533E-001  -6.4533501863E-002 -4.1087526828E-002 
9800000000.000 +1.4062884264E-002 +5.2411723882E-003  +9.6759438515E-002 +3.1137579679E-001  +2.1428538859E-001 +2.6806697249E-001  -2.9615944251E-002 +1.3194891624E-002 
10000000000.000 -6.6274903715E-002 +8.0616682768E-002  -2.6195502281E-001 -1.6482402384E-001  -2.7779957652E-001 +1.5294693410E-001  +3.3575888723E-002 +4.9842186272E-002 
10200000000.000 -7.4890591204E-003 +7.6602369547E-002  +3.0321034789E-001 -6.5488675318E-005  -2.8023636341E-001 -1.1034090817E-001  +5.5226806551E-002 -1.0297032446E-001 
10400000000.000 +1.1968606710E-001 +4.0012374520E-002  -2.2330531478E-001 +1.7784555256E-001  +1.3455075026E-001 -2.8316003084E-001  -3.5430118442E-002 -7.9786665738E-002 
10600000000.000 -8.4965454880E-004 -3.3711709082E-002  +4.5515183359E-002 -2.8552049398E-001  +2.5313860178E-001 +1.5208190680E-001  -3.8464900106E-002 +1.0757356137E-001 
10800000000.000 -6.7592673004E-002 +3.1695943326E-002  +1.0264366865E-001 +2.5169166923E-001  -5.7970292866E-002 +2.7892461419E-001  +2.2232342511E-002 -5.9400826693E-002 
11000000000.000 +7.9383030534E-002 +6.2063159421E-003  -2.3681202531E-001 -1.4596019685E-001  -2.9222306609E-001 +2.7267621830E-002  +6.0633908957E-002 +1.2133532204E-002 
11200000000.000 -3.7572499365E-002 +6.8431183696E-002  +2.5706291199E-001 -3.8460236043E-002  -5.3422033787E-002 -2.8261077404E-001  -1.0650915653E-001 -3.7498783320E-002 
11400000000.000 -1.0937251151E-002 -6.9083057344E-002  -1.7918652296E-001 +1.8269170821E-001  +2.7505069971E-001 -8.4664173424E-002  +2.6313185692E-002 -6.8207895383E-003 
11600000000.000 -1.4181016944E-002 -3.1398039311E-002  -2.0600829273E-002 -2.3785789311E-001  +1.0767987370E-001 +2.3811212182E-001  +3.0625326559E-002 +1.1452149600E-001 
11800000000.000 -1.0579676926E-001 +9.2333532870E-002  +1.8030416965E-001 +1.5776634216E-001  -2.1812552214E-001 +1.5051367879E-001  -4.6830535866E-003 -1.8606236577E-001 
12000000000.000 +1.5307033062E-001 +2.0889181644E-002  -2.2050616145E-001 -4.7461181879E-002  -1.3637536764E-001 -2.1068711579E-001  -4.6482365578E-002 +1.4726161025E-002 
12200000000.000 +5.1695182920E-003 -4.2090862989E-002  +2.1073351800E-001 -6.7123800516E-002  +2.0184287429E-001 -1.4180959761E-001  -6.5423645079E-002 +4.5971915126E-002 
12400000000.000 +9.8525378853E-003 +5.0304528326E-002  -1.3831906021E-001 +1.7251053452E-001  +1.5425439179E-001 +1.9059389830E-001  +4.7696202993E-002 -4.5178648084E-002 
12600000000.000 -1.4823189937E-002 +2.5303293020E-002  -5.8110944927E-002 -2.0995865762E-001  -1.4851574600E-001 +1.9688200951E-001  -3.9210688323E-002 +3.8385789841E-002 
12800000000.000 -1.5179019421E-002 +3.9891991764E-002  +1.8798902631E-001 +9.4292640686E-002  -2.3256486654E-001 -7.0932134986E-002  +1.4191416092E-002 -1.1048274487E-001 
13000000000.000 +6.9702081382E-002 +3.1517673284E-002  -2.0057682693E-001 +3.3912666142E-002  +4.0663041174E-002 -2.2819355130E-001  -5.4933812469E-002 +1.0637788475E-001 
13200000000.000 -1.3634033501E-001 -1.5369835496E-001  +1.7938312888E-001 -8.7939456105E-002  +1.8740051985E-001 +9.2544347048E-002  +8.4387868643E-002 -1.0063822567E-001 
13400000000.000 -3.2306779176E-002 +1.0720326006E-001  -1.2248421460E-001 +1.5120641887E-001  -1.0093577951E-001 +1.9906347990E-001  +4.9120552838E-002 -6.2349081039E-002 
13600000000.000 -2.8534077108E-002 +1.0526634753E-002  -3.4761793911E-002 -2.0078918338E-001  -2.3021808267E-001 -4.6752374619E-002  -9.2308312654E-002 -6.9494685158E-003 
13800000000.000 +2.8556434438E-002 -3.8579471409E-002  +1.6410623491E-001 +1.2233147770E-001  -6.3247047365E-002 -2.0966151357E-001  +6.3005968928E-002 -4.4413339347E-002 
14000000000.000 +1.5072707087E-002 -3.4086597152E-003  -1.9345039129E-001 +2.4731786922E-002  +1.8175143003E-001 -9.6915692091E-002  +6.0255769640E-002 +5.4554186761E-002 
14200000000.000 -1.2861420214E-001 -3.2715246081E-002  +1.4709173143E-001 -1.2768152356E-001  +1.2537239492E-001 +1.5685395896E-001  +1.6839122400E-002 -1.0899977386E-001 
14400000000.000 +5.9563580900E-002 +3.1921207905E-002  -4.8492278904E-002 +1.8277618289E-001  -1.7978979647E-001 +9.6833176911E-002  -1.9844293594E-002 +3.1524538994E-002 
14600000000.000 +2.1222468466E-002 -3.5339098424E-002  -7.8679896891E-002 -1.7016893625E-001  -9.0818494558E-002 -1.6529256105E-001  +4.3822132051E-002 +2.8396754060E-003 
14800000000.000 -4.0560536087E-002 -3.3875800669E-002  +1.7703197896E-001 +7.0298478007E-002  +1.2799532712E-001 -1.4242298901E-001  +4.4225335121E-002 +2.2314986214E-002 
15000000000.000 +1.0922863148E-002 -5.6937135756E-002  -1.7486810684E-001 +7.3808044195E-002  +1.5846030414E-001 +1.0210126638E-001  -1.0772155598E-002 -8.1351146102E-002 
15200000000.000 -3.7464454770E-002 +9.8328821361E-002  +9.8263144493E-002 -1.6600447893E-001  -8.5856750607E-002 +1.5923747420E-001  -7.1210358292E-003 +2.9591666535E-002 
15400000000.000 +6.7287467420E-002 -2.1285399795E-002  +5.0604693592E-002 +1.8401733041E-001  -1.6115014255E-001 -7.7310763299E-002  +3.2815843821E-002 +6.7587099969E-002 
15600000000.000 +9.6632931381E-003 -5.2780576050E-002  -1.5252272785E-001 -1.2461115420E-001  +1.7524231225E-002 -1.8080733716E-001  +1.2211736292E-002 -9.3140795827E-002 
15800000000.000 -2.0086178556E-002 +2.7434831485E-002  +1.9930940866E-001 +3.7107743323E-002  +1.7906273901E-001 +3.9923847653E-003  +5.5839188397E-002 +6.1780653894E-002 
16000000000.000 +2.6588238776E-002 -6.3086546957E-002  -1.6853639483E-001 +1.0057644546E-001  -3.4006953239E-002 +1.7405931652E-001  -4.2074713856E-003 -7.5074337423E-002 
16200000000.000 -1.9300622866E-002 +6.6254772246E-002  +6.9001331925E-002 -1.8282139301E-001  -1.6742956638E-001 +3.6247612443E-003  -3.0007408932E-002 +6.4295463264E-002 
16400000000.000 +4.5893196017E-002 -8.7690597866E-004  +7.8192703426E-002 +1.6788195074E-001  -3.0437538400E-002 -1.5851418674E-001  +5.5334463716E-002 -4.0642987937E-002 
16600000000.000 -3.1318068504E-002 -5.9576377273E-002  -1.4546670020E-001 -1.0373166203E-001  +1.4770896733E-001 -6.8301349878E-002  +8.8900374249E-003 +1.5865117311E-003 
16800000000.000 +2.8830057010E-002 +7.4093431234E-002  +1.8421429396E-001 +2.5620190427E-002  +8.2275912166E-002 +1.3808520138E-001  -2.4395443033E-003 +7.7405363321E-002 
17000000000.000 +4.7642476857E-003 +1.2572771870E-002  -1.5138840675E-001 +9.3482971191E-002  -1.2767948210E-001 +8.4532745183E-002  +4.8998713493E-002 -1.0402622819E-001 
17200000000.000 +2.4850627407E-002 -2.4190926924E-002  +1.0951119475E-002 -1.6943629086E-001  -9.6662931144E-002 -1.1181689054E-001  +2.4920169264E-002 +1.0576423258E-001 
17400000000.000 +4.3828956783E-002 +5.4120592773E-002  +1.0937752575E-001 +1.2345987558E-001  +8.9911326766E-002 -1.1543155462E-001  -2.4443829432E-002 -5.3397428244E-002 
17600000000.000 -2.9126025736E-002 -3.9285417646E-002  -1.5274541080E-001 -2.1793287247E-002  +1.2526945770E-001 +4.8569340259E-002  +7.8652597964E-002 -3.5550836474E-003 
17800000000.000 -1.9645886496E-003 +8.4709115326E-002  +1.4500181377E-001 -6.3628531992E-002  -2.7039924636E-002 +1.3611428440E-001  +1.7788957804E-002 +7.1955487132E-002 
18000000000.000 +3.9437476546E-002 +2.9511971399E-002  -7.1381904185E-002 +1.3305504620E-001  -1.3009440899E-001 -1.6901550815E-002  -3.8047765847E-003 -8.6860068142E-002 
18200000000.000 -2.3547720164E-002 -5.1088739187E-002  -2.4256143719E-002 -1.5943475068E-001  +3.9571258239E-003 -1.3911859691E-001  +1.7114652321E-002 +1.1370276660E-001 
18400000000.000 -5.0620056689E-002 +1.0468504578E-001  +1.0561288893E-001 +9.4451740384E-002  +1.2166009843E-001 -6.1242035590E-003  +5.6492887437E-002 +4.5559398830E-002 
18600000000.000 -1.6528815031E-002 -3.9880815893E-002  -1.5229929984E-001 +4.4295545667E-002  +3.2377377152E-002 +1.2517459691E-001  -2.6229836047E-002 -2.2171998397E-002 
18800000000.000 -4.3899755925E-002 +5.0022479147E-002  +9.6533656120E-002 -1.0395622998E-001  -1.1725676805E-001 +5.6760597974E-002  +4.9670375884E-002 +2.9482873157E-002 
19000000000.000 +2.9303982854E-002 +2.0526878070E-003  -7.4545363896E-003 +1.4956294000E-001  -7.3957629502E-002 -1.0430488735E-001  -1.8656775355E-002 +1.1148672551E-002 
19200000000.000 -6.6457554698E-002 -1.3054820895E-001  -5.8006536216E-002 -1.3016624749E-001  +1.0678150505E-001 -5.4082740098E-002  -2.5709273294E-002 +9.1896057129E-002 
19400000000.000 -1.1042070575E-002 +1.1050158739E-001  +1.3580612838E-001 +4.7965798527E-002  +8.7393946946E-002 +8.1984616816E-002  +9.5106735826E-002 -3.2221212983E-002 
19600000000.000 +4.7359489836E-003 -6.3335537910E-002  -1.4995867014E-001 +4.4912338257E-002  -8.1580124795E-002 +1.0671435297E-001  -9.7149766982E-002 +5.3207129240E-002 
19800000000.000 +2.2940430790E-002 -2.3613106459E-002  +7.4225813150E-002 -1.3347953558E-001  -1.0945090652E-001 -7.9630441964E-002  +3.8987658918E-002 -9.3472935259E-003 
20000000000.000 -2.1752743050E-002 +1.4323981013E-003  +3.4924361855E-002 +1.4492678642E-001  +9.7319439054E-002 -8.7031237781E-002  +8.9528542012E-003 +6.0472410172E-002 
20200000000.000 +3.4923932981E-003 -9.7949825227E-002  -8.7302058935E-002 -1.1293502897E-001  +1.2750735879E-001 -2.2310089320E-002  -1.3872315176E-002 +1.0322715389E-003 
20400000000.000 -1.6987638548E-002 +6.3097357750E-002  +1.3536129892E-001 +3.4314848483E-002  +3.9445500821E-002 +1.2041578442E-001  +3.1569480896E-002 -4.1890531778E-002 
20600000000.000 +1.9710961729E-002 -9.3961739913E-003  -1.2781824172E-001 +5.7859372348E-002  -1.1813896149E-001 +4.3702729046E-002  +3.4200227819E-003 +1.0157673061E-001 
20800000000.000 +6.6709063947E-002 -3.8848038763E-002  +6.2987335026E-002 -1.2073216587E-001  -2.9699265957E-002 -1.1738535762E-001  +1.2028959580E-002 -3.2519001514E-002 
21000000000.000 -4.0387596935E-002 -4.7396726906E-002  +5.7832039893E-002 +1.0674656928E-001  +1.1064717919E-001 -1.7335927114E-002  +7.6980479062E-002 -1.4909017831E-002 
21200000000.000 +3.0235741287E-002 +4.8270862550E-002  -1.0980413854E-001 -6.4653851092E-002  +1.4103982598E-002 +1.1006184667E-001  -7.8729405999E-002 +5.2003093064E-002 
21400000000.000 +2.5684926659E-002 -5.7156018913E-002  +1.2196617573E-001 -2.9793499038E-002  -9.6195280552E-002 +5.2078563720E-002  +1.1717697233E-001 +1.2609644793E-002 
21600000000.000 +3.7572037429E-002 +4.2647942901E-002  -9.6315465868E-002 +9.1216072440E-002  -8.4219768643E-002 -7.4104450643E-002  -2.9898256063E-002 +4.0175456554E-002 
21800000000.000 -3.8613176439E-003 -1.4068666846E-002  +2.8904248029E-002 -1.0596263409E-001  +3.3792439848E-002 -9.0695358813E-002  +1.1893495917E-002 -3.6193318665E-002 
22000000000.000 +2.9200150166E-003 -3.1798109412E-002  +4.2314749211E-002 +1.1769628525E-001  +9.9840924144E-002 +3.2910756767E-002  +3.3130258322E-002 +5.1979582757E-002 
22200000000.000 +7.2514124215E-002 +1.3408282399E-001  -9.6589304507E-002 -5.8422077447E-002  -2.3562816903E-002 +9.2534981668E-002  -1.6556002200E-002 +7.1190603077E-002 
22400000000.000 -6.4906366169E-003 -8.8389970362E-002  +1.1871709675E-001 -1.6759978607E-002  -1.0100208223E-001 -3.7502432242E-003  +1.0520239919E-001 -6.8804271519E-002 
22600000000.000 +3.1047305092E-003 +4.0854688734E-002  -9.0603239834E-002 +7.2107776999E-002  -5.3249527700E-003 -9.4440467656E-002  -9.3855649233E-002 +5.8420330286E-002 
22800000000.000 +1.2369588949E-002 +4.9045085907E-002  +1.7485516146E-002 -1.1285938323E-001  +1.0019833595E-001 -2.3909164593E-002  +1.7790157348E-002 +1.7579304054E-002 
