!  2-Port S-parameters saved by WinCal
! VAR MeasName=S-Parameters (RAW_DATA) read from VNA (MS4647B)
! VAR MeasDate=09-Dec-21 16:33:37
! VAR NAME=L4
! VAR FILENAME=L4.S2P
! VAR DATE=09-Dec-21 16:33:37
! VAR PHYS_PORTS=1,2
! VAR ObjTypeName=DATASET
! VAR IndexType=Frequency
!
# Hz S RI R 50
200000000.000 -1.9414676353E-002 -8.7129913270E-002  -2.3244392872E-001 -6.9002699852E-001  -3.4867113829E-001 -6.5070056915E-001  +2.0496565849E-002 -5.8083359152E-002 
400000000.000 +1.1840950698E-001 -8.8932670653E-002  -4.5130869746E-001 +5.1202571392E-001  -2.9285383224E-001 +6.2873429060E-001  -1.2762787938E-001 +2.4060794385E-004 
600000000.000 +6.2313359231E-002 -6.1989720911E-002  +5.6023001671E-001 +2.4811327457E-001  +5.8547735214E-001 -1.5549258888E-001  -4.9492590129E-002 +5.0868086517E-002 
800000000.000 +8.7945319712E-002 -2.3558667302E-001  -1.5784804523E-001 -6.3879257441E-001  -5.3637480736E-001 -3.5085535049E-001  +1.8212090433E-001 +7.5141333044E-002 
1000000000.000 +9.3930080533E-002 -1.8847276270E-001  -3.1615391374E-001 +6.2856376171E-001  +2.3452526331E-001 +6.2943834066E-001  +1.7704777420E-001 -6.0515470803E-002 
1200000000.000 +9.5772430301E-002 -2.3628814518E-001  +7.2631007433E-001 -7.7032990754E-002  +2.9515731335E-001 -6.1138427258E-001  -1.1324238777E-001 -1.4761561155E-001 
1400000000.000 +1.2223549187E-001 -1.8769766390E-001  -5.2952837944E-001 -5.0020921230E-001  -6.2902230024E-001 +2.3439727724E-001  -4.6334408224E-002 -6.7246481776E-002 
1600000000.000 +1.2077651173E-001 +1.3032040000E-001  -3.3650141209E-002 +6.2768596411E-001  +4.9911305308E-001 +2.4250291288E-001  -1.5562015772E-001 -5.9406820685E-002 
1800000000.000 +9.4403840601E-002 -5.5456557311E-003  +4.5068174601E-001 -2.6927652955E-001  -1.4734987915E-001 -4.3808528781E-001  +4.0488634259E-002 +1.0715349764E-001 
2000000000.000 +8.8457420468E-002 +4.0462207049E-002  -4.1982468963E-001 -1.6735979915E-001  -1.9209036231E-001 +3.3320170641E-001  +1.3761374354E-001 -3.4892822150E-003 
2200000000.000 +1.1906265467E-001 -1.8737995625E-001  +5.5785179138E-002 +4.0171033144E-001  +3.6279010773E-001 -4.1449062526E-002  +7.9177354928E-004 -2.6465415955E-001 
2400000000.000 -4.0138341486E-002 -1.2415535003E-001  +1.6950769722E-001 -3.9414405823E-001  -3.6858105659E-001 -1.5762764215E-001  -1.2348443270E-001 +4.8650532961E-002 
2600000000.000 +4.0977679193E-002 +9.1095797718E-002  -5.9407246113E-001 -4.8274767399E-001  -4.1055223346E-001 +3.2676762342E-001  +2.5283282623E-002 -3.5456001759E-002 
2800000000.000 +5.3245462477E-002 -2.5060194731E-001  +8.0896872282E-001 -3.4385323524E-001  -6.2015080452E-001 -3.5600659251E-001  -1.2865610421E-001 +1.2891465425E-001 
3000000000.000 +1.6003024578E-001 +7.8329220414E-002  -2.0185899734E-001 +8.3624207973E-001  +1.0212113708E-001 -7.2329181433E-001  -6.7999519408E-002 -7.6786302030E-002 
3200000000.000 +3.1821869314E-002 +1.4416088816E-003  -5.3312122822E-001 -5.9878546000E-001  +6.5587896109E-001 -1.8566836417E-001  -1.0182706639E-002 +2.4089971557E-002 
3400000000.000 +2.5472974777E-001 +5.0072297454E-002  +8.1035739183E-001 -7.8475035727E-002  +3.5385385156E-001 +6.4508122206E-001  -1.7122940719E-001 +7.6431050897E-002 
3600000000.000 +9.7843468189E-002 -4.0699411184E-002  -4.9223893881E-001 +6.8888932467E-001  -5.1145195961E-001 +6.7922616005E-001  -1.3600085676E-001 +6.2564991415E-002 
3800000000.000 -3.0341729522E-001 -1.2876966596E-001  -9.3960680068E-002 -8.7781029940E-001  -7.1614736319E-001 -3.8119262457E-001  +1.7602984607E-001 +9.9982403219E-002 
4000000000.000 -3.0459796544E-003 +1.4733429253E-001  +7.4159419537E-001 +4.8060002923E-001  +1.0673005879E-001 -7.4711388350E-001  -2.3175168782E-002 -8.9934758842E-002 
4200000000.000 +3.3985827118E-002 +8.7990604341E-002  -8.9209693670E-001 +1.7214536667E-001  +8.3784514666E-001 -9.4238534570E-002  -1.1260841787E-001 -5.2566960454E-002 
4400000000.000 +6.9158375263E-003 -7.1608141065E-002  +4.8801720142E-001 -7.0922446251E-001  +3.5885787010E-001 +8.1595206261E-001  +6.2883302569E-002 +5.8501239866E-002 
4600000000.000 -4.1081109084E-003 -3.9095774293E-002  +1.6543717682E-001 +8.4116357565E-001  -7.4067926407E-001 +3.9769405127E-001  +4.1436083615E-002 +8.9616745710E-002 
4800000000.000 -1.0674095899E-001 -8.1069298089E-002  -6.5733993053E-001 -5.2669513226E-001  -5.3106349707E-001 -5.8830136061E-001  +9.7707323730E-002 +4.7023210675E-002 
5000000000.000 +6.6997729242E-002 +2.4635281414E-002  +8.0000555515E-001 -2.6264492422E-002  +4.2172244191E-001 -7.4197590351E-001  -1.2207325548E-001 +3.0584808439E-002 
5200000000.000 +1.1727232486E-001 -2.4091400206E-001  -5.9368568659E-001 +5.2826780081E-001  +7.9089766741E-001 +4.3324181437E-001  +1.1302930862E-001 +1.7288765311E-001 
5400000000.000 -1.6082575917E-001 -1.4270539582E-001  +6.5083615482E-002 -7.5057864189E-001  -2.5979998708E-001 +7.3748606443E-001  +9.9477224052E-002 -1.9158461690E-001 
5600000000.000 +5.2618518472E-002 +6.2775544822E-002  +4.1841152310E-001 +5.8080238104E-001  -7.6415103674E-001 -9.0814381838E-003  +6.2476128340E-002 -4.1541751474E-002 
5800000000.000 +4.6269148588E-002 +1.6107848287E-001  -6.7578274012E-001 -1.1338482052E-001  -6.1681322753E-002 -7.7916014194E-001  -1.1006413400E-001 +1.0980753601E-001 
6000000000.000 +9.5154725015E-002 -3.7949498743E-002  +5.4325014353E-001 -3.4798943996E-001  +7.4090504646E-001 -1.2845939398E-001  -4.5536372811E-002 +9.1935545206E-002 
6200000000.000 +1.4631573856E-001 -9.5497928560E-002  -2.2904510796E-001 +5.8137667179E-001  +1.4958301187E-001 +6.6411727667E-001  +1.9260551035E-001 +1.5270471573E-001 
6400000000.000 -1.0068561137E-001 +7.0996388793E-002  -3.1083750725E-001 -5.3935962915E-001  -5.5290722847E-001 +4.0332868695E-001  -1.2093094736E-001 -9.1945990920E-002 
6600000000.000 +1.2465439737E-001 +2.0555222407E-002  +5.3451120853E-001 +3.2982656360E-001  -3.6999753118E-001 -5.7253342867E-001  +7.4953928590E-002 +1.3396480680E-001 
6800000000.000 -4.8927865922E-002 -4.9389041960E-002  -6.1874836683E-001 +7.0633873343E-002  +5.2525180578E-001 -4.3554770947E-001  -4.0673464537E-002 +5.2038729191E-002 
7000000000.000 +4.7799423337E-003 -5.4429262877E-002  +3.6569428444E-001 -4.8229578137E-001  +5.3622412682E-001 +2.8685307503E-001  -2.8889207169E-002 -8.4040701389E-002 
7200000000.000 -6.1509795487E-002 +4.3818790466E-002  -3.3379338682E-002 +5.9402859211E-001  -2.1385140717E-001 +5.3241372108E-001  +6.8152390420E-002 -4.9260202795E-002 
7400000000.000 -4.1420664638E-002 +1.0458920896E-001  -3.2268390059E-001 -4.6459344029E-001  -5.5284166336E-001 -1.8412923813E-001  -2.2253869474E-001 +6.7652963102E-002 
7600000000.000 +2.7986782789E-001 +1.2257239968E-001  +5.3056955338E-001 +1.4348803461E-001  +1.0207331926E-001 -5.3005391359E-001  +1.9647817314E-001 +1.3546261191E-001 
7800000000.000 -1.2118143588E-001 -3.2462455332E-002  -4.9337798357E-001 +2.3772616684E-001  +4.9462088943E-001 -2.6113457978E-002  -1.6953473911E-002 -3.0929785222E-002 
8000000000.000 +7.9057618976E-002 -1.6558578238E-002  +2.5965538621E-001 -4.6097767353E-001  +3.1168498099E-002 +5.1390469074E-001  +5.6774858385E-002 -5.1725894213E-002 
8200000000.000 -1.5222707391E-001 +6.4040109515E-002  +1.2360543758E-001 +4.7478896379E-001  -4.7085261345E-001 +1.0646303743E-001  -4.8415169120E-002 +4.9139764160E-002 
8400000000.000 -5.4403101094E-003 -6.9786654785E-003  -3.0896493793E-001 -3.2897537947E-001  -1.6731037199E-001 -4.1301506758E-001  -3.8611128926E-002 +4.6335730702E-002 
8600000000.000 +8.1778995693E-002 -4.7015056014E-002  +4.1019383073E-001 +4.5263469219E-003  +3.6221522093E-001 -1.8283966184E-001  +8.2605190575E-002 -3.9640523493E-002 
8800000000.000 -9.8745755851E-002 -6.1764217913E-002  -3.0187380314E-001 +2.7081418037E-001  +2.8940910101E-001 +2.9261246324E-001  -1.8521662056E-001 +2.7847127989E-002 
9000000000.000 +4.1228622198E-002 +7.7181033790E-002  +7.5655266643E-002 -3.6753982306E-001  -2.6909476519E-001 +2.8785762191E-001  +1.5723168850E-002 -3.5733699799E-002 
9200000000.000 -9.6133043990E-003 +8.8928438723E-002  +1.7760765553E-001 +3.2532238960E-001  -2.9231461883E-001 -2.2456328571E-001  +7.9248927534E-002 +1.0518494993E-001 
9400000000.000 +1.3657665253E-001 +3.3825572580E-002  -3.3276069164E-001 -9.3632653356E-002  +1.2497177720E-001 -3.2352465391E-001  +1.5814999118E-002 -1.1082196236E-001 
9600000000.000 -3.4498501569E-002 -5.9865131974E-002  +3.2526928186E-001 -1.2189710140E-001  +3.3634355664E-001 +1.1366112530E-001  -1.1807722971E-002 -5.5691715330E-002 
9800000000.000 -2.4721438065E-002 +6.4594217110E-004  -1.6500727832E-001 +2.8797608614E-001  -5.2115388215E-002 +3.4523922205E-001  -1.9946226384E-003 +2.0682517439E-002 
10000000000.000 -8.6710989475E-002 +3.1044444069E-002  -5.2644766867E-002 -3.0561289191E-001  -3.0030223727E-001 -1.0465828329E-001  +2.2865638137E-002 +8.5729882121E-002 
10200000000.000 -4.6450249851E-002 +4.1744839400E-002  +2.0779760182E-001 +2.3539488018E-001  -1.0631835461E-001 -2.9303458333E-001  +6.7164137959E-002 -3.9239421487E-002 
10400000000.000 +6.1997909099E-002 +1.9500037655E-002  -2.8524565697E-001 -6.4972326159E-002  +3.1301420927E-001 -7.3252864182E-002  -2.4188546464E-002 -3.1329389662E-002 
10600000000.000 -4.0496550500E-002 -4.5151010156E-002  +2.5450366735E-001 -1.4370223880E-001  +3.9023090154E-002 +2.9609999061E-001  -2.6329377666E-002 +1.1836581677E-001 
10800000000.000 -8.8017553091E-002 +4.4265527278E-002  -1.3799135387E-001 +2.3771230876E-001  -2.5876569748E-001 +1.2624523044E-001  +4.3103020638E-002 -6.7368037999E-002 
11000000000.000 +6.7858673632E-002 +1.9171063323E-003  -2.5418860838E-002 -2.8164356947E-001  -2.0008057356E-001 -2.2141523659E-001  +6.3717506826E-002 -4.4061499648E-003 
11200000000.000 -4.8235724680E-003 +3.4521028399E-002  +1.8188150227E-001 +1.8901695311E-001  +2.0133189857E-001 -2.0921346545E-001  -1.2746368349E-001 -4.9906708300E-002 
11400000000.000 +4.2987335473E-002 -9.4741128385E-002  -2.5705343485E-001 -4.3790981174E-002  +2.3067359626E-001 +1.8104897439E-001  +2.9712436721E-002 -1.2228262611E-002 
11600000000.000 +4.7925473191E-003 -4.6991806477E-002  +1.8678215146E-001 -1.5301911533E-001  -1.3710670173E-001 +2.2551117837E-001  +6.4371563494E-002 +1.4280566573E-001 
11800000000.000 -1.1669237912E-001 +8.1243470311E-002  -3.3153124154E-002 +2.4226304889E-001  -2.5064000487E-001 -1.0182240605E-001  +4.3236318976E-002 -1.4578028023E-001 
12000000000.000 +1.2192618102E-001 +2.7957202867E-002  -7.9339750111E-002 -2.1779766679E-001  +1.0874508321E-001 -2.3428069055E-001  -1.4117092825E-002 +3.5773348063E-002 
12200000000.000 -6.6548407078E-002 -3.6727890372E-002  +1.6635408998E-001 +1.5419043601E-001  +2.2892373800E-001 +1.0870964825E-001  -2.9070807621E-002 +3.9982415736E-002 
12400000000.000 -4.8736322671E-002 +2.0058311522E-002  -2.2052995861E-001 -2.9803214595E-002  -8.4257438779E-002 +2.3234581947E-001  +7.4463300407E-002 -4.3963808566E-002 
12600000000.000 -3.3627171069E-002 -1.3643589802E-002  +1.5718200803E-001 -1.5490303934E-001  -2.4775300920E-001 -3.4563485533E-002  -4.0393367410E-002 +4.4373143464E-002 
12800000000.000 -1.2673980091E-003 -7.9220663756E-003  +6.2807770446E-003 +2.1586330235E-001  -4.9254909158E-002 -2.4467672408E-001  +2.0594695583E-002 -9.2152476311E-002 
13000000000.000 +1.0200650990E-001 -2.8010388836E-002  -1.1611156911E-001 -1.6973052919E-001  +2.2692701221E-001 -5.9324584901E-002  -1.6278551891E-002 +1.4426490664E-001 
13200000000.000 -7.2719044983E-002 -1.8865507841E-001  +1.6548673809E-001 +1.0935169458E-001  +1.5443022363E-002 +2.0694532990E-001  +1.1002366245E-001 -2.7557328343E-002 
13400000000.000 +1.2351373211E-002 +9.7892098129E-002  -1.9665789604E-001 -5.4810442030E-002  -2.3349002004E-001 -1.3763953932E-002  +3.8392107934E-002 +1.7128814012E-002 
13600000000.000 -1.9805017859E-002 -6.3144154847E-003  +1.7075963318E-001 -1.1416721344E-001  -5.1019079983E-002 -2.3125405610E-001  -9.7518153489E-002 +4.3118029833E-002 
13800000000.000 +2.8340391815E-002 -5.4242476821E-002  -4.6587221324E-002 +2.0331642032E-001  +1.6978524625E-001 -1.4515627921E-001  +5.6614242494E-002 -8.2312375307E-003 
14000000000.000 +3.8549829274E-002 +6.2306281179E-003  -9.8288536072E-002 -1.6870665550E-001  +1.6067117453E-001 +1.2962269783E-001  +2.2876882926E-002 +9.5280878246E-002 
14200000000.000 -9.9075026810E-002 -5.4081636481E-003  +1.8054692447E-001 +9.7643986344E-002  -1.0811752081E-001 +1.8182766438E-001  -4.3574091047E-002 -7.1979850531E-002 
14400000000.000 +9.7997605801E-002 +5.9696998447E-002  -1.8687820435E-001 +1.4072962105E-002  -1.4927028120E-001 -1.3671140373E-001  -6.9954246283E-002 +5.0206333399E-002 
14600000000.000 +6.1760678887E-002 -6.4453380182E-003  +1.3050699234E-001 -1.3506664336E-001  +1.2128609419E-001 -1.4445202053E-001  +1.5467779711E-002 +3.6199688911E-002 
14800000000.000 -1.5205622651E-002 -7.0595322177E-003  -1.1852524243E-002 +1.9731488824E-001  +1.8164972961E-001 +8.0275066197E-002  +3.3414311707E-002 +5.8414939791E-002 
15000000000.000 +1.2157181278E-002 -4.3919183314E-002  -1.2565501034E-001 -1.4652393758E-001  -4.9745675176E-002 +1.8495829403E-001  -2.1585766226E-002 -7.2162486613E-002 
15200000000.000 -5.9999611229E-002 +1.0236947238E-001  +1.8939734995E-001 +4.8309959471E-002  -1.7921753228E-001 -3.8198240101E-002  -2.9321257025E-002 +2.7784535661E-002 
15400000000.000 +3.3869389445E-002 -1.6447089612E-002  -1.6393895447E-001 +1.0256107152E-001  +2.8242314234E-002 -1.7863045633E-001  -1.1407817947E-003 +7.8195020556E-002 
15600000000.000 -1.5970616369E-003 -4.5277077705E-002  +8.4122642875E-002 -1.8426884711E-001  +1.8472628295E-001 -2.9758946970E-002  -3.4478109330E-002 -7.4267037213E-002 
15800000000.000 -2.4891590700E-002 +5.8907985687E-002  +7.4717323296E-003 +2.0763139427E-001  +3.6194097251E-002 +1.8017722666E-001  +1.2819468975E-002 +8.5541866720E-002 
16000000000.000 +1.3434113003E-002 -3.3855825663E-002  -1.3786663115E-001 -1.4195714891E-001  -1.7879557610E-001 +7.2381542996E-003  -3.1997129321E-002 -6.9357097149E-002 
16200000000.000 -2.7179490775E-002 +7.6060347259E-002  +1.9691061974E-001 +3.0602965504E-002  -3.8692481816E-002 -1.6639386117E-001  -3.6031395197E-002 +6.8440727890E-002 
16400000000.000 +4.9044378102E-002 +7.4787456542E-003  -1.5300635993E-001 +1.1027405411E-001  +1.5274290740E-001 -6.0704432428E-002  +4.1335850954E-002 -3.9455261081E-002 
16600000000.000 -6.3722044230E-002 -5.7788636535E-002  +7.9661384225E-002 -1.6760882735E-001  +9.6885211766E-002 +1.3847005367E-001  -2.6685072109E-002 +5.0828391686E-003 
16800000000.000 -5.2285236306E-003 +5.0363477319E-002  +3.1581819057E-003 +1.8369103968E-001  -1.2206861377E-001 +1.0145995766E-001  -4.2689092457E-002 +6.0766916722E-002 
17000000000.000 -6.7268395796E-003 -9.2017846182E-003  -1.1912143230E-001 -1.4026889205E-001  -1.0623439401E-001 -1.1712305993E-001  +7.9349484295E-003 -1.0673398525E-001 
17200000000.000 -5.2137519233E-003 -1.0708909482E-002  +1.7780187726E-001 -1.0943949223E-002  +1.0363710672E-001 -1.1500050128E-001  -1.5365318395E-002 +1.2498069555E-001 
17400000000.000 -6.5195183270E-003 +4.8956487328E-002  -1.0584528744E-001 +1.1816189438E-001  +1.2009359151E-001 +7.3122650385E-002  -7.9385116696E-002 -4.7049745917E-002 
17600000000.000 -6.2453307211E-002 -7.8497074544E-002  +1.5351729468E-002 -1.6297633946E-001  -4.5346837491E-002 +1.3498874009E-001  +3.3837709576E-002 -2.4491891265E-002 
17800000000.000 -3.1440781895E-003 +4.4567700475E-002  +7.8251726925E-002 +1.3695590198E-001  -1.3766580820E-001 -1.2680847198E-002  -1.6877027228E-002 +4.6069353819E-002 
18000000000.000 +4.1489940137E-002 -1.4587003738E-002  -1.4790731668E-001 -6.9039344788E-002  +1.0341940448E-002 -1.4152772725E-001  -5.2775993943E-002 -1.1437521875E-001 
18200000000.000 -5.8742640540E-003 -1.1499585956E-001  +1.4592546225E-001 -1.9957287237E-002  +1.2681032717E-001 +5.5837510154E-003  -3.9915204048E-002 +6.2082014978E-002 
18400000000.000 +1.3459892944E-003 +4.7574065626E-002  -9.8652921617E-002 +1.3092276454E-001  +1.8476134166E-002 +1.3972803950E-001  +1.6623154283E-002 -1.4720557258E-002 
18600000000.000 +3.3908419311E-002 -6.5169140697E-002  -3.6522712559E-002 -1.4668498933E-001  -1.2029838562E-001 +2.6204064488E-002  -5.7847812772E-002 -6.8898744881E-002 
18800000000.000 -2.7139263693E-003 +4.8575047404E-002  +1.1395113915E-001 +9.7760982811E-002  -6.4668349922E-002 -1.2156353891E-001  +1.3868313283E-002 -1.5503984876E-002 
19000000000.000 +8.3448886871E-002 +1.2809462845E-002  -1.4589804411E-001 -2.3262737319E-002  +1.1048507690E-001 -6.0999263078E-002  -3.4850951284E-002 -4.8018448055E-002 
19200000000.000 -1.6098525375E-002 -9.4066694379E-002  +1.3302767277E-001 -6.9054000080E-002  +6.3612334430E-002 +1.0898303241E-001  -8.1787128001E-003 +3.0505517498E-002 
19400000000.000 +3.2446503639E-002 +1.5270987153E-001  -7.2021767497E-002 +1.3204027712E-001  -9.9039055407E-002 +7.6630637050E-002  +1.1193577945E-001 -9.0632207692E-002 
19600000000.000 +3.7204429507E-002 -2.0425366238E-002  -3.7782065570E-002 -1.4511480927E-001  -9.9218241870E-002 -8.2161314785E-002  -9.5872990787E-002 -1.4151157811E-003 
19800000000.000 +2.9407354072E-002 +1.9764581695E-002  +1.3380122185E-001 +9.1363914311E-002  +9.4815179706E-002 -1.0841845721E-001  +2.6884945109E-002 -4.7765836120E-002 
20000000000.000 -2.1128486842E-002 +2.8772830963E-002  -1.5017192066E-001 +1.6643788666E-002  +7.5315922499E-002 +1.0871379077E-001  +3.2890243456E-003 +3.7473261356E-002 
20200000000.000 -1.3925950043E-003 -7.0645436645E-002  +1.2405783683E-001 -7.7877752483E-002  +1.0079312138E-002 +1.3223530352E-001  -4.2266394943E-002 -2.8692524880E-002 
20400000000.000 -3.1135970727E-002 +9.6134454012E-002  -6.1200693250E-002 +1.2958981097E-001  -1.2907645106E-001 +1.6068331897E-002  +1.4109020121E-002 -8.6133487523E-002 
20600000000.000 -3.1031458639E-003 +1.6983412206E-002  -4.0457565337E-002 -1.3293088973E-001  -2.7975268662E-002 -1.2145262957E-001  -2.2378256544E-002 +6.3209831715E-002 
20800000000.000 +4.2285338044E-002 -4.2187673971E-003  +1.1892648041E-001 +8.2547523081E-002  +1.2765718997E-001 -1.5280107036E-002  -3.5531479865E-002 -5.4010763764E-002 
21000000000.000 -7.4561379850E-002 -1.4035798609E-002  -1.1994257569E-001 +2.3806098849E-002  -1.6833903268E-002 +1.1180163175E-001  +2.6143267751E-002 -4.6506661922E-002 
21200000000.000 -2.2622752935E-002 +6.5759956837E-002  +7.7571898699E-002 -1.0503477603E-001  -1.1387250572E-001 +2.5100656785E-003  -1.1527901143E-001 +1.1916999705E-002 
21400000000.000 -1.9628006965E-002 -5.0054024905E-002  -7.5782984495E-003 +1.3044697046E-001  -2.2302702069E-002 -1.1179179698E-001  +9.3904457986E-002 -2.7060745284E-002 
21600000000.000 -1.2800774537E-002 +4.2833928019E-002  -7.0264726877E-002 -1.0659001023E-001  +8.4533698857E-002 -6.7463465035E-002  -5.6653100997E-002 -3.2486310229E-003 
21800000000.000 -4.7458995134E-002 -4.0316652507E-002  +1.0083236545E-001 +6.8619020283E-002  +8.3002448082E-002 +6.8350441754E-002  -7.6688788831E-003 -7.9989165068E-002 
22000000000.000 -2.7860755101E-002 -7.1041502059E-002  -1.1524568498E-001 +1.2364016846E-002  -5.1472753286E-002 +8.2759141922E-002  +1.6199130565E-002 +4.9571637064E-003 
22200000000.000 +4.9694508314E-002 +1.0165309906E-001  +9.0973511338E-002 -8.7373524904E-002  -9.2956691980E-002 -5.2208952606E-002  -2.9719764367E-002 +1.6069000587E-002 
22400000000.000 -3.2203264534E-002 -1.2612047791E-001  -2.7816999704E-002 +1.1107881367E-001  +3.9552751929E-002 -8.7968826294E-002  +1.0901169479E-001 -1.1727035046E-001 
22600000000.000 -5.8867521584E-003 -6.8588671274E-003  -4.8969563097E-002 -1.1449625343E-001  +9.9639475346E-002 +2.1457668394E-002  -7.7949456871E-002 +2.6443507522E-002 
22800000000.000 +2.0064467564E-002 +1.6305714846E-002  +9.9175043404E-002 +5.9312291443E-002  -1.5669424087E-002 +1.0312093794E-001  +2.6193933561E-002 -9.1500235721E-003 
