!  2-Port S-parameters saved by WinCal
! VAR MeasName=S-Parameters (RAW_DATA) read from VNA (MS4647B)
! VAR MeasDate=09-Dec-21 16:30:25
! VAR NAME=Short
! VAR FILENAME=Short.S2P
! VAR DATE=09-Dec-21 16:30:25
! VAR PHYS_PORTS=1,2
! VAR ObjTypeName=DATASET
! VAR IndexType=Frequency
!
# Hz S RI R 50
200000000.000 -4.1869692504E-002 +7.7907752991E-001  +2.3504494493E-006 +4.4505850383E-006  +6.7149117058E-006 -1.3364176084E-005  +5.1543635130E-001 +3.8203498721E-001 
400000000.000 +8.2401794195E-001 -1.2415313162E-002  -8.2270844359E-006 -6.5113144956E-006  -1.1934099348E-005 -8.2295082393E-006  -4.0584340692E-001 -6.0874861479E-001 
600000000.000 +2.1475479007E-001 -6.5355002880E-001  -1.5134093701E-005 +1.3631625734E-005  +3.7132336729E-005 +1.9100638383E-005  -7.8371591866E-002 +6.4980000257E-001 
800000000.000 -6.0139530897E-001 -3.5324192047E-001  +1.7892440155E-005 +8.3471113612E-006  +3.4904849599E-005 -2.4156595828E-005  +4.4409233332E-001 -4.5575314760E-001 
1000000000.000 +1.5983048081E-001 +5.3469908237E-001  -2.9652801459E-005 -4.0520528273E-005  -4.3452659156E-005 -1.6355572370E-005  -1.8169716001E-001 +5.0835633278E-001 
1200000000.000 +8.0238884687E-001 -2.8710409999E-001  +5.9761632656E-006 +5.3634234064E-005  +4.2327941628E-005 +2.1857076717E-005  +3.7231612206E-001 -6.8268227577E-001 
1400000000.000 -6.3198179007E-002 -8.4081012011E-001  +7.1484719228E-005 -2.4420345653E-005  +5.0022854339E-006 -5.2841252909E-005  -6.8211770058E-001 +1.9545118511E-001 
1600000000.000 -4.9370270967E-001 +3.0580082536E-001  -6.6244116169E-005 -1.5722825992E-005  -2.8369064239E-005 +4.0301238187E-005  +4.6503201127E-001 -2.0505474508E-001 
1800000000.000 +3.1551200151E-001 +4.8576685786E-001  +4.4077364691E-006 +4.6022581955E-005  +4.0319951950E-005 +3.6641210954E-006  -4.5966711640E-001 +7.7855125070E-002 
2000000000.000 +4.6409198642E-001 -1.7641517520E-001  +2.3153885195E-005 -2.7457079341E-005  -2.2629405066E-005 -2.4695063985E-005  +5.3610235453E-001 +1.2333550304E-001 
2200000000.000 -3.8009949028E-002 -5.2938687801E-001  -3.8982387196E-005 -2.6026884370E-005  -2.2747986804E-005 +3.5276978451E-005  -2.1362154186E-001 -5.4374086857E-001 
2400000000.000 -3.7170875072E-001 +1.5083377063E-001  +3.8299047446E-005 +3.8011719880E-005  +4.5690056140E-005 -4.1755141865E-005  +2.2092537582E-001 +3.6530002952E-001 
2600000000.000 +3.9765354246E-002 +8.8465243578E-001  +9.6893767477E-005 -2.8995647881E-005  -2.4015896543E-006 -7.0332374889E-005  +3.8270780444E-001 -4.2729142308E-001 
2800000000.000 -8.3873921633E-001 -4.1979759932E-001  -1.4331353668E-005 +1.2268534920E-004  +8.2188504166E-005 -5.6426222727E-005  +3.6159208417E-001 +5.8384716511E-001 
3000000000.000 +4.9416106939E-001 -7.4032789469E-001  -3.2586576708E-005 -1.2850237545E-004  +3.8686834159E-005 +8.3645565610E-005  -5.6703341007E-001 +2.4091711640E-001 
3200000000.000 +7.5528013706E-001 +6.1610168219E-001  +1.8159471801E-004 +3.1363852031E-005  -8.8677566964E-005 +1.3395732094E-004  -2.1406948566E-001 -6.5232348442E-001 
3400000000.000 -4.6309000254E-001 +6.4272308350E-001  -5.6447042880E-005 +1.1687712686E-004  -1.0315128020E-004 -2.4481516448E-005  +5.1391875744E-001 -3.7401854992E-001 
3600000000.000 -2.4757820368E-001 -8.4540182352E-001  +3.5052664771E-006 -1.3199870591E-004  +6.7839082476E-006 -1.3589668379E-004  +1.2208230048E-001 +8.0095916986E-001 
3800000000.000 +7.6709938049E-001 -3.1352663040E-001  +1.3448971731E-004 +9.4461378467E-005  +1.4152156655E-004 -1.6496827811E-005  -6.2089526653E-001 +6.0607057065E-002 
4000000000.000 -1.8789359927E-001 +1.0447633266E+000  -1.3001912157E-004 -2.7185365980E-005  +2.3249918740E-005 +1.2980685278E-004  +9.7716614604E-002 -7.8762763739E-001 
4200000000.000 -7.3231530190E-001 -5.3852319717E-001  +1.5516293934E-004 -1.0374808335E-004  -1.6851020337E-004 +9.6298987046E-005  +7.6129412651E-001 +2.8830295801E-001 
4400000000.000 +7.0406693220E-001 -6.6577559710E-001  -5.5279306252E-005 +1.3554979523E-004  -1.0185583233E-004 -1.2433898519E-004  -4.2006018758E-001 +7.4248671532E-001 
4600000000.000 +1.3667294383E-001 +8.8933807611E-001  -6.2562678067E-005 -1.6601063544E-004  +1.1993898806E-004 -1.1615515541E-004  -5.7695627213E-001 -5.8039802313E-001 
4800000000.000 -8.6248856783E-001 -2.1540699899E-001  +1.0033203580E-004 +1.1122074648E-004  +9.2917107395E-005 +1.0116796329E-004  +6.9651299715E-001 -3.4706136584E-001 
5000000000.000 +7.2258245945E-001 -4.8584845662E-001  -2.1315361664E-004 -5.1049657486E-005  -1.5814549988E-004 +1.5726240235E-004  +2.7462439612E-002 +8.7014240026E-001 
5200000000.000 +3.9618715644E-001 +6.8529164791E-001  +1.6840902390E-004 -1.3728145859E-004  -1.8441792054E-004 -1.5403426369E-004  -7.7082037926E-001 +2.4744787812E-001 
5400000000.000 -8.7366223335E-001 -2.3605024815E-001  -1.0074205784E-004 +1.8319647643E-004  +1.5165275545E-004 -1.3195529755E-004  +3.1225061417E-001 -7.7959990501E-001 
5600000000.000 +4.2573317885E-001 -6.0962998867E-001  -4.7928715503E-005 -2.5855182321E-004  +2.6433024323E-004 +1.3579687220E-004  +6.4397877455E-001 +3.8403347135E-001 
5800000000.000 +4.3278953433E-001 +6.9379633665E-001  +2.0023423713E-004 +2.2206781432E-004  -2.0782776119E-004 +2.9383215588E-004  -7.8801858425E-001 +3.7905567884E-001 
6000000000.000 -6.3983082771E-001 +1.6298657656E-001  -3.5456166370E-004 +8.2281236246E-005  -4.4823024655E-004 -8.4033017629E-005  -2.9161024094E-001 -7.6470291615E-001 
6200000000.000 +2.2882920504E-001 -6.4861673117E-001  +2.3853333551E-004 -1.8402622663E-004  +1.0291796934E-004 -3.1335119274E-004  +7.8347295523E-001 +2.6623323560E-001 
6400000000.000 +4.4335502386E-001 +4.2803671956E-001  -5.1967555919E-005 +4.5168417273E-004  +5.1670178073E-004 +5.9737881202E-006  -5.2620869875E-001 +4.9526834488E-001 
6600000000.000 -4.4150304794E-001 +3.8850861788E-001  -2.7942418819E-004 -3.5222183215E-004  +1.1297177116E-004 +4.8794763279E-004  -4.0449312329E-001 -4.5515152812E-001 
6800000000.000 -9.5644347370E-002 -6.6802215576E-001  +4.6240101801E-004 +1.8258056662E-004  -5.4493942298E-004 +1.1959278345E-004  +6.6970008612E-001 -1.5397937037E-002 
7000000000.000 +6.1480706930E-001 +4.5530427247E-002  -3.9130411460E-004 +2.7887703618E-004  -3.6445353180E-004 -3.4517169115E-004  +1.0703825206E-001 +5.8488345146E-001 
7200000000.000 -5.0549405813E-001 +4.0511783957E-001  +2.7404722641E-004 -4.3626409024E-004  +3.7969715777E-004 -3.2797278254E-004  -4.7171688080E-001 -2.9214334488E-001 
7400000000.000 -2.6789352298E-001 -5.1906251907E-001  +2.3026122653E-004 +4.7333192197E-004  +4.8797085765E-004 +2.3432202579E-004  +8.2707516849E-002 -5.1157248020E-001 
7600000000.000 +7.3294699192E-001 +1.9952453673E-001  -3.0221283669E-004 -2.5274825748E-004  -2.2157283092E-004 +3.2615990494E-004  +4.2406976223E-001 +4.8527655005E-001 
7800000000.000 -5.4727715254E-001 +4.1187468171E-001  +5.7441304671E-004 +2.0509774913E-005  -4.7558738152E-004 -2.0725422655E-004  -5.6994414330E-001 +4.0593937039E-002 
8000000000.000 -9.0767174959E-002 -5.2438354492E-001  -3.4625406261E-004 +3.3178692684E-004  +1.0718477279E-004 -4.4348384836E-004  +3.6531955004E-002 -5.7285767794E-001 
8200000000.000 +3.9169457555E-001 +1.2244039029E-001  +7.8131786722E-005 -5.1110604545E-004  +4.8640152090E-004 +8.5015155491E-005  +4.2249077559E-001 +2.7362412214E-001 
8400000000.000 -2.0925664902E-001 +3.8314560056E-001  +1.5147324302E-004 +3.4545190283E-004  +1.3159628907E-005 +3.7738596438E-004  -2.9650330544E-001 +3.3443167806E-001 
8600000000.000 -3.4543227404E-002 -4.3343436718E-001  -3.0488404445E-004 -2.3435997718E-004  -3.7335802335E-004 -7.5158000982E-005  -9.0756081045E-003 -4.1071131825E-001 
8800000000.000 +3.5511761904E-001 -1.4200553298E-001  +4.1568363667E-004 -1.3641848636E-004  -1.5646117390E-004 -4.0590559365E-004  +2.5218033791E-001 -1.0080491006E-001 
9000000000.000 -1.5086947381E-001 +4.2437574267E-001  -2.9907483258E-004 +2.4866947206E-004  +4.0546507807E-004 -6.0072987253E-005  -1.1753458530E-001 +3.3002373576E-001 
9200000000.000 -3.6425596476E-001 -2.0937876403E-001  -4.5900873374E-005 -4.6611818834E-004  +2.2976778564E-004 +3.9543444291E-004  -3.1517377496E-001 -8.2450605929E-002 
9400000000.000 +4.3090406060E-001 -4.7435376793E-002  +2.0610664797E-004 +2.4276210752E-004  -2.6313620037E-004 +1.8238785560E-004  +1.5391267836E-001 -3.5795179009E-001 
9600000000.000 -1.6599886119E-001 +3.0644503236E-001  -3.6848554737E-004 -1.8115834973E-004  -1.7378198390E-004 -3.8305998896E-004  +9.3304850161E-002 +2.9539975524E-001 
9800000000.000 -3.1710347533E-001 -2.3772688210E-001  +3.9321501390E-004 -1.2481199519E-004  +3.3529530629E-004 -2.7603018680E-004  -3.5066807270E-001 +5.4378148168E-002 
10000000000.000 +2.9957994819E-001 -2.6258109137E-002  -2.4305532861E-004 +3.8561123074E-004  +2.3324502399E-004 +3.9740360808E-004  +9.8261341453E-002 -2.7364981174E-001 
10200000000.000 -8.3437167108E-002 +3.2934579253E-001  -3.4963344660E-005 -3.4091516864E-004  -8.5901112470E-005 +3.2333607669E-004  +3.2444119453E-001 -4.7844577581E-002 
10400000000.000 -2.6672704145E-002 -2.7776354551E-001  +1.1740830087E-004 +3.5301138996E-004  -2.8116969042E-004 -2.9164360603E-004  -2.2693775594E-001 +1.8221771717E-001 
10600000000.000 +3.1561261415E-001 -5.3313933313E-002  -4.4922981760E-004 -1.3217382366E-004  +2.8967129765E-004 -3.7719914690E-004  -2.2141844034E-001 -1.3218683004E-001 
10800000000.000 -2.4260170758E-001 +2.7275973558E-001  +3.6422163248E-004 -5.3668023611E-005  +3.4595493344E-004 +1.6807716747E-004  +2.7939212322E-001 -1.4173026383E-001 
11000000000.000 -9.1330528259E-002 -2.6250493526E-001  -3.3525167964E-004 +3.0480106943E-004  -8.6912077677E-005 +4.7110443120E-004  +7.8681133687E-002 +2.9586699605E-001 
11200000000.000 +2.5843679905E-001 +3.1020013615E-002  +1.0307287448E-004 -3.7886071368E-004  -4.2400407256E-004 -1.0081883374E-004  -3.4897720814E-001 -1.7197345197E-001 
11400000000.000 -7.8093737364E-002 +2.0109739900E-001  +1.8869104679E-004 +4.8311901628E-004  +8.8010790932E-005 -5.6599837262E-004  +2.7522823215E-001 -2.0928214490E-001 
11600000000.000 -1.6378401220E-001 -2.0497865975E-001  -3.9031755296E-004 -1.1764046212E-004  +4.4081159285E-004 -2.8050420951E-005  +1.7093500495E-001 +3.6049833894E-001 
11800000000.000 +1.6347706318E-001 +2.8306361288E-002  +5.0462456420E-004 -1.4758638281E-004  +1.8002863726E-005 +5.7316047605E-004  -2.6830440760E-001 -8.8147722185E-002 
12000000000.000 +8.5315540433E-002 +2.5711938739E-001  -2.1784842829E-004 +3.9545030450E-004  -4.8042985145E-004 +1.5833243378E-004  +2.5477487594E-002 -2.0281021297E-001 
12200000000.000 -1.7126721144E-001 -2.4624657631E-001  +1.4461504179E-004 -3.7174945464E-004  +4.0656901547E-005 -4.3997872854E-004  +6.4698860049E-002 +2.3795425892E-001 
12400000000.000 +2.5187796354E-001 -3.1079733744E-002  +1.3654482609E-004 +5.7417800417E-004  +6.4093281981E-004 -1.1301980521E-005  -2.0706835389E-001 -1.7566908151E-002 
12600000000.000 -4.1432948783E-003 +2.4852509797E-001  -5.5449485080E-004 -1.3551294978E-004  +2.4699530331E-004 +5.8487249771E-004  -1.5970375389E-002 -2.2872070968E-001 
12800000000.000 -2.2491779923E-001 -3.4136559814E-002  +3.8577520172E-004 -3.3764241380E-004  -3.8322113687E-004 +4.5455174404E-004  +2.5364711881E-001 -6.2017142773E-002 
13000000000.000 +2.7983835340E-001 -9.6982948482E-002  -2.0805996610E-004 +3.3026796882E-004  -2.7198615135E-004 -3.5693802056E-004  -1.5078631043E-001 +2.9019796848E-001 
13200000000.000 -1.8161402643E-001 +1.0784009844E-001  +2.7978196158E-004 -6.1653123703E-004  +6.9242669269E-004 -1.5635142336E-004  +5.6670241058E-002 -2.7638769150E-001 
13400000000.000 -1.8147844076E-001 -1.4809079468E-002  +2.9736681608E-004 +5.2173540462E-004  +4.5476990636E-004 +5.1379326032E-004  +2.7051898837E-001 +6.6432185471E-002 
13600000000.000 +1.4590854943E-001 -9.6410721540E-002  -4.1577903903E-004 -2.2165710106E-004  -4.0806029574E-004 +3.4856083221E-004  -2.6060324907E-001 +1.8102800846E-001 
13800000000.000 +5.3085088730E-002 +1.6843220592E-001  +5.7953415671E-004 -7.9036872194E-005  -5.4543383885E-004 -3.1107343966E-004  -1.0479336232E-001 -2.0149131119E-001 
14000000000.000 -1.9628843665E-001 -6.8919353187E-002  -4.3987089884E-004 +5.1939988043E-004  +2.3914934718E-004 -6.7357876105E-004  +2.3563323915E-001 -3.4863650799E-002 
14200000000.000 +7.1712122299E-003 -1.8542854488E-001  -1.7273750564E-004 -6.5561430529E-004  +6.8679265678E-004 -1.5344172425E-004  +3.9075065404E-002 +1.3214966655E-001 
14400000000.000 +1.1473467201E-001 +2.1551279724E-001  +2.3083006090E-004 +3.5857074545E-004  -1.0653196659E-004 +4.6281469986E-004  -2.0968995988E-001 -6.7207820714E-002 
14600000000.000 -1.6385526955E-001 -9.1209068894E-002  -5.5236689514E-004 -3.4781041904E-004  -5.8259628713E-004 -3.1591620063E-004  +2.0856054127E-001 -7.5374476612E-002 
14800000000.000 +1.0618033260E-001 -1.6726158559E-001  +5.7981960708E-004 -3.7073003477E-004  -1.3768341159E-004 -6.8406859646E-004  +1.6319820285E-001 +2.2504954040E-001 
15000000000.000 +7.2737321258E-002 +1.2975105643E-001  -1.9448348030E-004 +5.5439199787E-004  +5.5799534312E-004 -1.4593836386E-004  -2.0820561051E-001 -2.2436529398E-002 
15200000000.000 -2.2697903216E-001 +5.8362402022E-002  -1.2490802328E-004 -5.5214995518E-004  +1.3849810057E-004 +5.0779327285E-004  +1.2295107357E-002 -1.6314341128E-001 
15400000000.000 +1.9701834023E-001 -1.9005423784E-001  +4.9433147069E-004 +4.3270629249E-004  -6.0826574918E-004 +9.4277442258E-005  +1.6273905337E-001 +1.6850399971E-001 
15600000000.000 +1.2621751428E-001 +1.1683408916E-001  -6.8992609158E-004 +1.0884100629E-004  -4.4152964256E-004 -4.7181904665E-004  -1.6024553776E-001 +4.9717444927E-002 
15800000000.000 -2.0104892552E-001 -5.4057408124E-003  +5.0929124700E-004 -2.2503618675E-004  +4.1640468407E-004 -2.7538143331E-004  -3.0720718205E-002 -1.0176943988E-001 
16000000000.000 +1.8626667559E-001 -1.7171402276E-001  -3.8266158663E-004 +6.1779189855E-004  +1.8243998056E-004 +6.2217965024E-004  +1.7586575449E-001 -4.2603660375E-002 
16200000000.000 +2.9606357217E-002 +2.6634210348E-001  -2.0155517268E-004 -6.8621535320E-004  -4.7068524873E-004 +3.8932773168E-004  -1.0698805004E-001 +2.3734533787E-001 
16400000000.000 -1.3578069210E-001 +3.1723070424E-003  +5.3688237676E-004 +3.1384089380E-004  -3.9395649219E-004 -3.7908781087E-004  -6.5719917417E-002 -1.7058433592E-001 
16600000000.000 +5.7808224112E-002 -1.9956606627E-001  -5.4898316739E-004 -1.0918847693E-004  +3.3329450525E-004 -3.9800937520E-004  +1.4902392030E-001 -5.0976078957E-002 
16800000000.000 +8.9919582009E-002 +2.5619766116E-001  +7.5233564712E-004 -1.5848342446E-004  +5.0932093291E-004 +4.1899364442E-004  -7.1174696088E-002 +2.3699502647E-001 
17000000000.000 -1.8180879951E-001 -1.5179340262E-003  -2.3319660977E-004 +6.4635084709E-004  -1.7453345936E-004 +5.6034995941E-004  -1.3003429770E-001 -1.8763218820E-001 
17200000000.000 +1.0478181392E-001 -1.4536944032E-001  -1.6009128012E-004 -4.9936695723E-004  -3.9902710705E-004 -2.1285729599E-004  +1.0198250413E-001 -1.6746106849E-004 
17400000000.000 +9.3097314239E-002 +2.0660841465E-001  +5.1981478464E-004 +4.4603311107E-004  +3.0166187207E-004 -5.1934260409E-004  +2.2015472874E-002 +9.5349080861E-002 
17600000000.000 -2.1882995963E-001 -8.3674350753E-003  -8.1158103421E-004 +2.6973339845E-004  +7.4220064562E-004 -6.5210741013E-005  -1.2782752514E-001 +3.6800265312E-002 
17800000000.000 +2.7908626944E-002 -7.8416965902E-002  +2.3781071650E-004 -5.1773682935E-004  +2.4693339947E-004 +4.3480171007E-004  -2.1547937766E-002 -1.0212132335E-001 
18000000000.000 +1.1469526589E-001 +1.1782889068E-001  -1.0487672262E-004 +4.1926759877E-004  -3.7642577081E-004 +5.1005845307E-005  +9.3284979463E-002 -4.2926326394E-002 
18200000000.000 -2.0189502835E-001 -8.0576710403E-002  -2.6888677894E-005 -7.4057804886E-004  +8.7814354629E-005 -6.3664122717E-004  -1.5512698889E-001 +1.4659912884E-001 
18400000000.000 -3.0873397365E-002 -9.0653918684E-002  +8.8262691861E-004 +3.2092477340E-005  +5.6768103968E-004 -5.1829800941E-004  -3.0022259802E-002 -1.7069958150E-001 
18600000000.000 +1.1564379185E-001 +1.4958855696E-002  -2.8889550595E-004 +3.4707647865E-004  +2.7790287277E-004 +2.4980440503E-004  +8.1926107407E-002 -9.5847867429E-002 
18800000000.000 -1.5148018301E-001 +4.9624949694E-002  +2.5339252898E-004 -3.3561457531E-004  -3.2667670166E-004 +2.0241012680E-004  +3.8070295006E-002 +1.3856270909E-001 
19000000000.000 +1.3385312259E-001 -1.5427747369E-001  -1.3266644964E-004 +7.3627254460E-004  -2.9421818908E-004 -5.7086907327E-004  -1.6424790025E-001 -1.0212586075E-001 
19200000000.000 +8.8416464627E-002 -4.0551625192E-002  -6.4559292514E-004 -3.3441191772E-004  +2.5802271557E-004 -5.5393669754E-004  +1.2563483417E-001 -4.2927883565E-002 
19400000000.000 -8.3779208362E-002 +1.9198703766E-001  +3.8162647979E-004 -1.5025184439E-006  +2.8923252830E-004 +1.3222573034E-004  +1.2629932165E-001 +5.9419035912E-002 
19600000000.000 +6.7396946251E-002 -1.9218693674E-001  -5.0174031639E-004 +6.0155274696E-005  -3.2644381281E-004 +3.0350967427E-004  -2.2346371412E-001 -6.8367198110E-003 
19800000000.000 +1.3416315615E-001 +1.3484366238E-001  +2.6339443866E-004 -7.1020284668E-004  -6.0208264040E-004 -3.0813310877E-004  +5.8721676469E-002 -2.0859341323E-001 
20000000000.000 -1.5702621639E-001 +2.6598326862E-002  +2.2636106587E-004 +4.3785572052E-004  +2.5216591894E-004 -3.6110327346E-004  +1.2241315842E-001 +1.3304422796E-001 
20200000000.000 +7.1053817868E-002 -1.9791783392E-001  -2.4210178526E-004 -3.7199628423E-004  +3.9648675011E-004 -3.1877665606E-005  -8.9476466179E-002 +1.0621462762E-001 
20400000000.000 +6.5491609275E-002 +2.2124910355E-001  +5.6915311143E-004 +3.0188474921E-004  +4.6184301027E-005 +5.7368032867E-004  -6.2521710992E-002 -1.9170080125E-001 
20600000000.000 -1.2031879276E-001 +4.0134586394E-002  -4.1964725824E-004 +3.4998139017E-004  -4.0060194442E-004 +2.8667840525E-004  +1.2662659585E-001 +1.1768957600E-002 
20800000000.000 +1.4727121592E-001 -9.5944993198E-002  +2.0055759524E-004 -2.9981817352E-004  -4.5058521209E-005 -3.2103146077E-004  +6.1557726003E-003 +7.9794675112E-002 
21000000000.000 -4.7326061875E-002 +1.2157677114E-001  -3.8381385821E-005 +5.3531763842E-004  +4.5547564514E-004 +2.0736351144E-004  -7.0767186582E-002 -8.1666171551E-002 
21200000000.000 -1.3560444117E-001 +5.0604842603E-002  -6.3592998777E-004 -2.0882360695E-004  +1.8580230244E-004 +5.5148609681E-004  -1.4413141645E-002 -1.0611552000E-001 
21400000000.000 +6.4473964274E-002 -1.3805393875E-001  +3.3777477802E-004 -1.0900920461E-004  -2.6844930835E-004 +1.5662859369E-004  +1.8558703363E-001 +7.5563482940E-002 
21600000000.000 +4.3116051704E-002 +1.5588611364E-001  -3.2134115463E-004 +1.0171313625E-004  -1.0504752572E-004 -2.6975138462E-004  -1.4854507148E-001 +5.1330812275E-002 
21800000000.000 -1.7242367566E-001 -4.3463628739E-002  +4.4029494165E-004 -3.7327446626E-004  +4.2820954695E-004 -2.9109042953E-004  +1.7702307552E-002 -1.8205945194E-001 
22000000000.000 +1.6816746444E-002 -1.5423193574E-001  +2.2469424584E-004 +4.4954128680E-004  +4.0921565960E-004 +9.2514528660E-005  +1.6007183492E-001 +6.4843513072E-002 
22200000000.000 +9.7089909017E-002 +2.0067866147E-001  -1.9840555615E-004 -1.9162509125E-004  -1.0701571591E-004 +2.0735819999E-004  -9.2727884650E-002 +1.2858201563E-001 
22400000000.000 -1.3978406787E-001 -1.2892401218E-001  +2.7516891714E-004 +2.5474574068E-004  -1.9162312674E-004 -2.5772978552E-004  +8.1302054226E-002 -1.9906775653E-001 
22600000000.000 +4.0422227234E-002 -1.1068105698E-001  -6.1389617622E-004 +1.6217892698E-004  +1.9108637935E-004 -4.8914301442E-004  +5.0896015018E-002 +6.2008496374E-002 
22800000000.000 +8.3567395806E-002 +1.0166803747E-001  +1.2849397899E-004 -3.4806964686E-004  +3.4056164441E-004 -1.0687172107E-005  -1.8937923014E-002 +1.2481563538E-001 
