!  2-Port S-parameters saved by WinCal
! VAR MeasName=S-Parameters (RAW_DATA) read from VNA (MS4647B)
! VAR MeasDate=09-Dec-21 16:22:37
! VAR NAME=L3
! VAR FILENAME=L3.S2P
! VAR DATE=09-Dec-21 16:22:37
! VAR PHYS_PORTS=1,2
! VAR ObjTypeName=DATASET
! VAR IndexType=Frequency
!
# Hz S RI R 50
200000000.000 -1.7631664872E-002 -8.6018376052E-002  -2.2143252194E-001 -6.9592207670E-001  -3.3897614479E-001 -6.5821278095E-001  +2.3594610393E-002 -5.5920474231E-002 
400000000.000 +1.2108213454E-001 -8.4563106298E-002  -4.7033047676E-001 +4.9878582358E-001  -3.1524053216E-001 +6.2130588293E-001  -1.2710621953E-001 -4.4195866212E-003 
600000000.000 +5.6543618441E-002 -6.5438851714E-002  +5.4839432240E-001 +2.7731963992E-001  +5.9453082085E-001 -1.2588721514E-001  -4.1779682040E-002 +5.0996493548E-002 
800000000.000 +9.1525889933E-002 -2.3884752393E-001  -1.1520072818E-001 -6.5009891987E-001  -5.1352858543E-001 -3.8742449880E-001  +1.8725809455E-001 +8.1370539963E-002 
1000000000.000 +8.6073748767E-002 -1.8793350458E-001  -3.6973020434E-001 +6.0252648592E-001  +1.8199500442E-001 +6.4990276098E-001  +1.6559514403E-001 -5.8684237301E-002 
1200000000.000 +1.0587484390E-001 -2.4568136036E-001  +7.3173147440E-001 -5.1468578167E-003  +3.5417920351E-001 -5.8054399490E-001  -1.1825419217E-001 -1.6420644522E-001 
1400000000.000 +1.3736896217E-001 -1.8367981911E-001  -4.7086828947E-001 -5.5988079309E-001  -6.5492242575E-001 +1.6142973304E-001  -5.1204480231E-002 -6.6927887499E-002 
1600000000.000 +9.5717504621E-002 +1.3731785119E-001  -1.1537010968E-001 +6.2220150232E-001  +4.6711260080E-001 +3.0597430468E-001  -1.4446243644E-001 -6.6958218813E-002 
1800000000.000 +1.1224547029E-001 -8.4608867764E-003  +4.8853689432E-001 -1.9999469817E-001  -8.1011474133E-002 -4.5721495152E-001  +4.3838392943E-002 +1.2148669362E-001 
2000000000.000 +7.0186063647E-002 +2.8647074476E-002  -3.8975077868E-001 -2.3759844899E-001  -2.4756483734E-001 +2.9921978712E-001  +1.3096709549E-001 -2.3348974064E-002 
2200000000.000 +1.4311216772E-001 -1.7423784733E-001  -1.5992557630E-002 +4.0410548449E-001  +3.6416614056E-001 +2.2699808702E-002  +1.8501833081E-002 -2.6644200087E-001 
2400000000.000 -6.1216734350E-002 -1.2021148950E-001  +2.4566976726E-001 -3.5838133097E-001  -3.3440169692E-001 -2.2853738070E-001  -1.1767804623E-001 +6.4036272466E-002 
2600000000.000 +5.0149749964E-002 +1.0164459795E-001  -4.8177868128E-001 -5.9996277094E-001  -4.7259101272E-001 +2.3495525122E-001  +1.9763352349E-002 -4.6054508537E-002 
2800000000.000 +5.9362869710E-002 -2.3570615053E-001  +8.7251937389E-001 -1.5293395519E-001  -5.2727675438E-001 -4.9048140645E-001  -1.2906335294E-001 +1.1792308092E-001 
3000000000.000 +1.6062806547E-001 +1.3515593112E-001  -3.9362195134E-001 +7.6732277870E-001  +2.7101022005E-001 -6.8180674314E-001  -6.8385981023E-002 -1.0741758347E-001 
3200000000.000 +8.8547924533E-003 +1.0037483275E-001  -3.5176160932E-001 -7.3588031530E-001  +6.9289535284E-001 +1.7059961101E-003  -9.5868334174E-003 -4.0764085948E-002 
3400000000.000 +2.2677461803E-001 +1.1252947152E-001  +8.0141049623E-001 +1.3845981658E-001  +1.6856375337E-001 +7.1586555243E-001  -1.7745280266E-001 +1.8162092194E-002 
3600000000.000 +1.0221976042E-001 -3.7299647927E-002  -6.7465877533E-001 +5.2170515060E-001  -6.8926239014E-001 +5.0759720802E-001  -1.6309513152E-001 +3.2638233155E-002 
3800000000.000 -2.6400732994E-001 -1.8693296611E-001  +1.7321386933E-001 -8.6979097128E-001  -5.7209485769E-001 -5.8365660906E-001  +1.6112037003E-001 +1.0648759454E-001 
4000000000.000 +6.9351959974E-004 +1.1742181331E-001  +5.5386382341E-001 +6.9751626253E-001  +3.4084269404E-001 -6.7938470840E-001  -1.2393126264E-002 -8.1866167486E-002 
4200000000.000 +6.5400819294E-003 +4.5420881361E-002  -9.0841054916E-001 -1.3553966582E-001  +8.3176141977E-001 +1.9159950316E-001  -7.8619264066E-002 -4.6250332147E-002 
4400000000.000 -2.2245492786E-002 -7.3952011764E-002  +7.1148401499E-001 -4.9853479862E-001  +5.1003463566E-002 +8.9714831114E-001  +7.0252239704E-002 +6.9535024464E-002 
4600000000.000 +8.0615347251E-003 -9.5405075699E-003  -1.5095229447E-001 +8.5143065453E-001  -8.4029322863E-001 +1.0525546223E-001  -1.0618846864E-002 +8.3707772195E-002 
4800000000.000 -4.3757021427E-002 -4.2555779219E-002  -4.1469502449E-001 -7.5320798159E-001  -2.6995927095E-001 -7.6379323006E-001  +9.6686417237E-003 +4.3703179806E-002 
5000000000.000 +1.5486542881E-001 +3.7966303527E-002  +7.4903762341E-001 +2.9810965061E-001  +6.8490278721E-001 -5.1488345861E-001  -1.6980680823E-001 +3.5729162395E-002 
5200000000.000 +2.1663066745E-001 -2.1501895785E-001  -7.6004141569E-001 +2.4216118455E-001  +5.4789513350E-001 +7.2392904758E-001  +1.2358485907E-001 +1.9604703784E-001 
5400000000.000 -9.2178113759E-002 -1.1996886879E-001  +3.7814399600E-001 -6.6616404057E-001  -5.4978871346E-001 +5.7297384739E-001  +1.2889918685E-001 -1.2464566529E-001 
5600000000.000 +2.6628676802E-002 +7.3857463896E-002  +1.2495038658E-001 +7.1174281836E-001  -6.9029444456E-001 -3.4360453486E-001  +6.4884804189E-002 -1.1242799228E-003 
5800000000.000 -2.8899028897E-002 +1.7458687723E-001  -5.5274212360E-001 -4.0829014778E-001  +2.9993396997E-001 -7.2151124477E-001  -1.7271478474E-001 +7.8473009169E-002 
6000000000.000 +5.9295300394E-002 +6.2401075847E-003  +6.4809072018E-001 -6.0799743980E-002  +7.2697806358E-001 +2.2789540887E-001  -9.9876403809E-002 +5.5383861065E-002 
6200000000.000 +1.2139630318E-001 -2.1740963683E-002  -4.8954594135E-001 +4.1070097685E-001  -1.8964676559E-001 +6.6777515411E-001  +1.3757294416E-001 +1.3753347099E-001 
6400000000.000 -1.0346283019E-001 +1.2527465820E-001  +1.2775218347E-003 -6.2567090988E-001  -6.8670856953E-001 +7.0991598070E-002  -1.9363512099E-001 -6.1383530498E-002 
6600000000.000 +1.4729996026E-001 +3.0412312597E-002  +2.9528960586E-001 +5.5983132124E-001  -2.9787404463E-002 -6.8660408258E-001  +5.4276599549E-003 +1.3830921054E-001 
6800000000.000 +3.6101054866E-003 -4.5225989074E-002  -5.7063835859E-001 -2.6624622941E-001  +6.8402278423E-001 -9.7902789712E-002  -2.1499814466E-002 +2.9704544693E-002 
7000000000.000 +1.5113743022E-002 -6.7333675921E-002  +5.7165735960E-001 -2.1389886737E-001  +3.0355533957E-001 +5.3162664175E-001  +3.7776853889E-002 -1.1414714158E-001 
7200000000.000 -1.1599614471E-001 +3.0124442652E-002  -3.5594967008E-001 +4.8033201694E-001  -4.7448486090E-001 +3.3007326722E-001  +8.4286198020E-002 -6.7637883127E-002 
7400000000.000 -1.2401238829E-001 +1.0191108286E-001  -7.9108215868E-003 -5.6682223082E-001  -3.5685062408E-001 -4.5990142226E-001  -2.6532962918E-001 +3.6012217402E-002 
7600000000.000 +1.7473576963E-001 +1.4266228676E-001  +3.6829340458E-001 +4.2521348596E-001  +3.9144155383E-001 -3.8996428251E-001  +1.2736219168E-001 +1.1615093797E-001 
7800000000.000 -1.9492983818E-001 -1.9329041243E-002  -5.4647380114E-001 -1.0493071377E-001  +4.2002019286E-001 +2.7783590555E-001  -5.8615840971E-002 -2.7484670281E-002 
8000000000.000 +6.7984476686E-002 -1.8153749406E-002  +4.8958393931E-001 -2.1483615041E-001  -2.8608718514E-001 +4.3348407745E-001  +3.6931082606E-002 -6.0679404996E-003 
8200000000.000 -1.1604633927E-001 +5.4148789495E-002  -1.9707810879E-001 +4.5710453391E-001  -4.4294476509E-001 -2.0761789382E-001  -4.2614601552E-002 +6.1197578907E-002 
8400000000.000 +5.2578750998E-002 -3.7417627871E-002  -3.4664589912E-002 -4.5967102051E-001  +1.3280805945E-001 -4.3543529510E-001  -2.2172318771E-002 +8.9630940929E-003 
8600000000.000 +1.3638578355E-001 -6.6105037928E-002  +3.0971437693E-001 +2.6416942477E-001  +3.9372554421E-001 +9.0823948383E-002  +1.1690681428E-001 -1.0527455062E-001 
8800000000.000 -9.9107988179E-002 -6.9418981671E-002  -4.1004669666E-001 +1.0294348001E-002  +3.0967909843E-002 +4.1524192691E-001  -1.6930049658E-001 -8.9634843171E-003 
9000000000.000 -2.2851714864E-002 +7.1736529469E-002  +3.0561524630E-001 -2.2497986257E-001  -3.9662352204E-001 +3.5158775747E-002  +8.8241547346E-003 -1.5564298257E-002 
9200000000.000 -7.7680513263E-002 +9.8947510123E-002  -8.2998394966E-002 +3.6249369383E-001  -6.9377787411E-002 -3.6215677857E-001  +6.1645064503E-002 +1.5041579306E-001 
9400000000.000 +8.2132302225E-002 +4.6545039862E-002  -1.8392352760E-001 -3.0431112647E-001  +3.2162925601E-001 -1.5520417690E-001  +2.5933306664E-002 -6.2920644879E-002 
9600000000.000 -7.4055701494E-002 -5.6702334434E-002  +3.1931647658E-001 +1.4413318038E-001  +1.6007347405E-001 +3.2016310096E-001  +5.1661594771E-003 -4.9645649269E-003 
9800000000.000 -1.5521192923E-002 -3.4528505057E-002  -3.2708004117E-001 +8.6505644023E-002  -2.8749111295E-001 +2.0918455720E-001  -9.9444817752E-003 +5.2007835358E-002 
10000000000.000 -4.0753889829E-002 +1.3679439202E-002  +1.8431100249E-001 -2.5749486685E-001  -1.3912387192E-001 -2.9304388165E-001  -1.5385293402E-002 +7.2394885123E-002 
10200000000.000 -4.6423287131E-003 +3.0235992745E-003  -3.8586221635E-002 +3.1974926591E-001  +1.5217144787E-001 -2.8157672286E-001  +1.5995956492E-003 -3.8406867534E-002 
10400000000.000 +9.2759557068E-002 -2.9873762280E-002  -1.4113377035E-001 -2.5517684221E-001  +2.6193928719E-001 +1.8413539231E-001  -7.0055641234E-002 -2.6745583862E-002 
10600000000.000 -2.5803232566E-002 -8.1979714334E-002  +2.7916079760E-001 +9.6304193139E-002  -1.9814278185E-001 +2.2780433297E-001  -4.1420757771E-002 +1.3004457951E-001 
10800000000.000 -9.4369485974E-002 +1.9349297509E-002  -2.7430197597E-001 +5.0251472741E-002  -2.6821926236E-001 -1.1635198444E-001  +4.5730475336E-002 -4.8232171685E-002 
11000000000.000 +7.6335974038E-002 -5.8140819892E-003  +2.0487108827E-001 -2.0088803768E-001  +4.5263797045E-002 -2.9934263229E-001  +8.1909529865E-002 +2.4779408704E-003 
11200000000.000 +1.6076354310E-002 +7.5010098517E-002  -3.3065047115E-002 +2.6281890273E-001  +2.9233774543E-001 +2.5711365044E-002  -1.1123441160E-001 -6.3926488161E-002 
11400000000.000 +5.1492471248E-002 -3.7992719561E-002  -1.2314317375E-001 -2.3370727897E-001  -3.2422919758E-003 +2.9716512561E-001  +3.2169438899E-002 -9.3588735908E-003 
11600000000.000 +1.5213928185E-002 -2.2813819349E-002  +2.4023844302E-001 +5.9537727386E-002  -2.6922857761E-001 +2.6059465483E-002  +2.8815744445E-002 +1.6471455991E-001 
11800000000.000 -1.0382287204E-001 +7.6017521322E-002  -2.2122120857E-001 +1.1548773944E-001  -6.3426323235E-002 -2.6811096072E-001  -1.1772132479E-002 -1.1330335587E-001 
12000000000.000 +1.2810783088E-001 -5.4123434238E-003  +1.3777969778E-001 -1.9035798311E-001  +2.5835469365E-001 -4.1402645409E-002  -4.8507321626E-002 +5.6042939425E-002 
12200000000.000 -3.8635890931E-002 -1.0138567537E-001  -3.4359537065E-002 +2.2177030146E-001  +3.7372548133E-002 +2.4760073423E-001  -3.8094609976E-002 +7.3848165572E-002 
12400000000.000 +3.5227327608E-003 -1.9089659676E-002  -9.8900318146E-002 -2.0844085515E-001  -2.4947455525E-001 +5.8044914156E-002  +6.1468198895E-002 -1.8412239850E-002 
12600000000.000 +8.9202784002E-003 -1.2649958022E-002  +2.1848157048E-001 +5.0891961902E-002  -1.0476595908E-001 -2.3180297017E-001  -4.6616833657E-002 +3.9722438902E-002 
12800000000.000 +3.3955764025E-002 +2.8680013493E-002  -1.8488752842E-001 +1.1687386781E-001  +1.8802170455E-001 -1.6920463741E-001  +2.3499371018E-003 -9.7424335778E-002 
13000000000.000 +1.3247939944E-001 +3.0579149723E-002  +8.1714168191E-002 -1.8486186862E-001  +1.6716925800E-001 +1.5901939571E-001  -6.6714704037E-002 +1.5636092424E-001 
13200000000.000 -7.6443269849E-002 -1.1246867478E-001  -2.0342474803E-002 +2.1688698232E-001  -1.9291037321E-001 +1.2196248770E-001  +2.8271228075E-002 -4.4978462160E-002 
13400000000.000 -7.2505199350E-003 +1.3844934106E-001  -4.3187536299E-002 -1.9402071834E-001  -9.5620810986E-002 -2.0707374811E-001  -1.5851665288E-002 -4.0999438614E-002 
13600000000.000 -1.1868508533E-002 +1.1550637893E-002  +1.8430611491E-001 +9.8508462310E-002  +1.8275411427E-001 -1.5678772330E-001  -1.3354413211E-001 +9.5345890149E-003 
13800000000.000 +4.0059693158E-002 -4.4374544173E-002  -2.0717614889E-001 +4.9190938473E-002  +2.0945507288E-001 +8.9954622090E-002  +3.1486790627E-002 -3.6739915609E-002 
14000000000.000 +1.5773175284E-002 +1.7299668863E-002  +1.1260125041E-001 -1.6817688942E-001  -4.7907359898E-002 +2.0863513649E-001  +1.6865799204E-002 +3.8704589009E-002 
14200000000.000 -1.3922058046E-001 -3.6255640443E-003  -1.5653025359E-002 +2.0123679936E-001  -2.0682911575E-001 -2.4323355407E-002  -2.5732850656E-002 -1.4077517390E-001 
14400000000.000 +5.1376763731E-002 +6.7420229316E-002  -9.6075013280E-002 -1.6499339044E-001  +5.9142895043E-002 -1.9771169126E-001  -4.9097031355E-002 +2.1269845311E-003 
14600000000.000 +1.0893798433E-002 +1.4680257300E-004  +1.8319541216E-001 +7.2920963168E-002  +1.8918254972E-001 +6.0274079442E-002  +1.3448716141E-002 -9.5251388848E-003 
14800000000.000 -5.1797095686E-002 -1.1306906119E-002  -1.8762449920E-001 +6.1744604260E-002  -7.3527749628E-003 +1.9838264585E-001  +1.9088998437E-002 +2.3955188692E-002 
15000000000.000 +2.5417902507E-003 -5.2812580019E-002  +9.3337401748E-002 -1.7360170186E-001  -1.9430111349E-001 +2.0712336525E-002  -1.9755138084E-002 -8.5881426930E-002 
15200000000.000 -4.4726900756E-002 +8.4881328046E-002  +2.2197555751E-002 +1.9779750705E-001  -2.8221804649E-002 -1.8453033268E-001  -1.0236752219E-002 +1.4747993089E-002 
15400000000.000 +5.9747975320E-002 -4.0779497474E-002  -1.5446503460E-001 -1.2660731375E-001  +1.8413707614E-001 -3.1545266509E-002  +2.1752201021E-002 +4.9618832767E-002 
15600000000.000 +3.7734152284E-003 -5.7038478553E-002  +2.0332555473E-001 +2.2789977491E-002  +8.6446963251E-002 +1.6765764356E-001  -5.7127829641E-003 -1.1561188847E-001 
15800000000.000 -3.7822201848E-002 +2.8578076512E-002  -1.9495236874E-001 +7.2533838451E-002  -1.5976907313E-001 +9.0882830322E-002  +3.7396214902E-002 +4.1693035513E-002 
16000000000.000 +1.1190483347E-002 -6.6757515073E-002  +1.0029491037E-001 -1.7786401510E-001  -5.9079021215E-002 -1.7497865856E-001  -9.1424100101E-003 -8.8279455900E-002 
16200000000.000 -2.4642527103E-002 +6.4584955573E-002  +2.4283625185E-002 +2.0141729712E-001  +1.5241380036E-001 -8.3725623786E-002  -3.3293452114E-002 +6.2690027058E-002 
16400000000.000 +4.1375994682E-002 +8.1277196296E-004  -1.4862926304E-001 -1.2167323381E-001  +9.9953770638E-002 +1.3445475698E-001  +5.3209416568E-002 -4.7756284475E-002 
16600000000.000 -3.3225446939E-002 -7.3452934623E-002  +1.8136550486E-001 +3.9014529437E-002  -1.1273258179E-001 +1.2623481452E-001  +6.5055503510E-003 -1.2696506456E-002 
16800000000.000 +3.6603931338E-002 +6.0503389686E-002  -1.8660435081E-001 +4.8797227442E-002  -1.3383731246E-001 -9.9410474300E-002  +1.1930415640E-003 +6.1634767801E-002 
17000000000.000 +1.0829118080E-002 +7.4686547741E-003  +1.1544299871E-001 -1.4565260708E-001  +9.5219358802E-002 -1.2829855084E-001  +4.7891169786E-002 -1.1947452277E-001 
17200000000.000 +2.0815288648E-002 -3.4283552319E-002  +4.2700771242E-002 +1.7114332318E-001  +1.3083337247E-001 +8.0176271498E-002  +1.9095944241E-002 +9.3045130372E-002 
17400000000.000 +4.5196026564E-002 +3.9520151913E-002  -1.4705537260E-001 -8.9202709496E-002  -5.3752686828E-002 +1.4254853129E-001  -2.7085257694E-002 -6.8935297430E-002 
17600000000.000 -2.0994175225E-002 -4.7659438103E-002  +1.5828815103E-001 -1.6018128023E-002  -1.3730031252E-001 -1.7654975876E-002  +8.2143485546E-002 -1.5002106316E-002 
17800000000.000 +8.0221407115E-003 +8.3817578852E-002  -1.3295242190E-001 +9.9375829101E-002  -4.6126083471E-003 -1.4535124600E-001  +2.4869164452E-002 +6.2984220684E-002 
18000000000.000 +4.8209801316E-002 +3.1379904598E-002  +4.8799693584E-002 -1.4861966670E-001  +1.3591098785E-001 -6.4567597583E-003  +2.6646235492E-003 -9.4334974885E-002 
18200000000.000 -1.3665102422E-002 -4.6835541725E-002  +5.2748542279E-002 +1.5820138156E-001  +2.0478431135E-002 +1.4235788584E-001  +2.5544719771E-002 +1.0437586904E-001 
18400000000.000 -4.5614439994E-002 +1.1138939857E-001  -1.2060070038E-001 -8.6653970182E-002  -1.2602467835E-001 +1.9944751635E-002  +6.4891107380E-002 +4.1961863637E-002 
18600000000.000 -1.4307058416E-002 -3.3172290772E-002  +1.5253138542E-001 -6.1533313245E-002  -4.6443905681E-002 -1.2572410703E-001  -1.9253479317E-002 -2.3734312505E-002 
18800000000.000 -4.6480216086E-002 +5.2730742842E-002  -9.4571582973E-002 +1.1325600743E-001  +1.1881357431E-001 -6.5282404423E-002  +5.2866060287E-002 +3.0365562066E-002 
19000000000.000 +2.7157478034E-002 +1.9473399734E-003  +3.6720242351E-003 -1.5598063171E-001  +7.9855665565E-002 +1.0660254210E-001  -1.7141433433E-002 +1.1967018247E-002 
19200000000.000 -6.7297056317E-002 -1.3162039220E-001  +5.8960530907E-002 +1.3629023731E-001  -1.1172486842E-001 +5.5207308382E-002  -2.5705358014E-002 +9.4420880079E-002 
19400000000.000 -1.2397828512E-002 +1.0792008042E-001  -1.3974970579E-001 -5.4536271840E-002  -8.8251896203E-002 -8.8423579931E-002  +9.1772414744E-002 -2.9128639027E-002 
19600000000.000 +6.9799167104E-003 -6.9166265428E-002  +1.5911015868E-001 -3.3871132880E-002  +9.3518309295E-002 -1.0367779434E-001  -1.0287185013E-001 +5.4326612502E-002 
19800000000.000 +2.8012659401E-002 -2.4873159826E-002  -9.1056093574E-002 +1.3039213419E-001  +1.0491451621E-001 +9.3967363238E-002  +3.6330420524E-002 -7.7282083221E-003 
20000000000.000 -1.9158903509E-002 +3.7715784856E-004  -1.5514014289E-002 -1.5484713018E-001  -1.1304654181E-001 +7.6060421765E-002  +6.3345814124E-003 +6.3459575176E-002 
20200000000.000 +8.8065825403E-003 -9.8976753652E-002  +6.8866342306E-002 +1.3061913848E-001  -1.3389180601E-001 +1.7156101239E-004  -1.9462328404E-002 +7.6189576648E-003 
20400000000.000 -8.6381966248E-003 +6.5628722310E-002  -1.3241967559E-001 -6.4160026610E-002  -1.5181965195E-002 -1.3263301551E-001  +2.2684030235E-002 -3.7733081728E-002 
20600000000.000 +2.5478264317E-002 -3.9808936417E-003  +1.4276978374E-001 -2.6452237740E-002  +1.2953492999E-001 -1.4524281025E-002  -4.5677507296E-003 +1.0884703696E-001 
20800000000.000 +7.6561078429E-002 -3.3434990793E-002  -9.3959107995E-002 +1.0302074254E-001  -1.3219879474E-003 +1.2415950000E-001  +6.1234072782E-003 -1.8740337342E-002 
21000000000.000 -2.7705986053E-002 -3.6742344499E-002  -2.5059152395E-002 -1.2870441377E-001  -1.1973927915E-001 -1.8085299060E-002  +6.7997612059E-002 +2.3714229465E-003 
21200000000.000 +3.3412240446E-002 +6.5965928137E-002  +8.3637170494E-002 +9.7492054105E-002  +2.2424072027E-002 -1.0962970555E-001  -9.2257805169E-002 +6.2326874584E-002 
21400000000.000 +2.9737427831E-002 -4.1012059897E-002  -1.3326707482E-001 -1.5439962037E-002  +1.1571694911E-001 -1.6354892403E-002  +1.0283464938E-001 +2.3180069402E-002 
21600000000.000 +3.4977532923E-002 +6.4614608884E-002  +1.2629817426E-001 -4.3943345547E-002  +4.6892065555E-002 +1.0298819840E-001  -5.0617247820E-002 +4.8606343567E-002 
21800000000.000 -1.5200288035E-002 +4.5934640802E-003  -7.2974525392E-002 +9.3145862222E-002  -7.1409977973E-002 +7.6006583869E-002  -6.2647568993E-003 -2.8102723882E-002 
22000000000.000 -1.9182661548E-002 -2.0444905385E-002  +2.0578287542E-002 -1.2560884655E-001  -7.2574406862E-002 -7.8643158078E-002  +8.4466692060E-003 +5.6785237044E-002 
22200000000.000 +5.6853551418E-002 +1.4330510795E-001  +6.3380539417E-002 +9.7405381501E-002  +6.3413769007E-002 -7.5215131044E-002  -4.3141782284E-002 +7.4825376272E-002 
22400000000.000 -3.1732134521E-002 -7.5585611165E-002  -1.1756096035E-001 -5.4815672338E-002  +8.9331284165E-002 +6.2932610512E-002  +7.6356410980E-002 -7.5099572539E-002 
22600000000.000 -2.2345198318E-002 +4.0393039584E-002  +1.1638905108E-001 -1.6807705164E-002  -4.3733816594E-002 +8.5667729378E-002  -1.0853204876E-001 +4.7068126500E-002 
22800000000.000 -6.9315135479E-003 +4.1759837419E-002  -8.3760619164E-002 +8.8691905141E-002  -1.0262755305E-001 -3.9753429592E-002  +1.6205206048E-003 +1.0362485424E-002 
