!  2-Port S-parameters saved by WinCal
! VAR MeasName=S-Parameters (RAW_DATA) read from VNA (MS4647B)
! VAR MeasDate=09-Dec-21 16:18:58
! VAR NAME=L2
! VAR FILENAME=L2.S2P
! VAR DATE=09-Dec-21 16:18:58
! VAR PHYS_PORTS=1,2
! VAR ObjTypeName=DATASET
! VAR IndexType=Frequency
!
# Hz S RI R 50
200000000.000 -1.6672978178E-002 -8.5522837937E-002  -2.1509404480E-001 -6.9881886244E-001  -3.3380481601E-001 -6.6243565083E-001  +2.5301473215E-002 -5.4693117738E-002 
400000000.000 +1.2220796943E-001 -8.2218825817E-002  -4.8006471992E-001 +4.9122574925E-001  -3.2753691077E-001 +6.1612218618E-001  -1.2675139308E-001 -6.9256029092E-003 
600000000.000 +5.3587291390E-002 -6.7473128438E-002  +5.4112112522E-001 +2.9288816452E-001  +5.9859204292E-001 -1.0967637599E-001  -3.7762235850E-002 +5.1474757493E-002 
800000000.000 +9.3981154263E-002 -2.4036438763E-001  -9.2407159507E-002 -6.5491098166E-001  -5.0046467781E-001 -4.0604537725E-001  +1.8971781433E-001 +8.4808573127E-002 
1000000000.000 +8.1945978105E-002 -1.8823732436E-001  -3.9680671692E-001 +5.8742451668E-001  +1.5306715667E-001 +6.5935415030E-001  +1.5939190984E-001 -5.8306016028E-002 
1200000000.000 +1.1218632758E-001 -2.4928298593E-001  +7.3214197159E-001 +3.3406648785E-002  +3.8436943293E-001 -5.6197917461E-001  -1.1947621405E-001 -1.7339277267E-001 
1400000000.000 +1.4474041760E-001 -1.7998979986E-001  -4.3681910634E-001 -5.8935540915E-001  -6.6563832760E-001 +1.2117403746E-001  -5.3898625076E-002 -6.7217633128E-002 
1600000000.000 +8.1684559584E-002 +1.3843706250E-001  -1.5817825496E-001 +6.1511909962E-001  +4.4661834836E-001 +3.3841577172E-001  -1.3763538003E-001 -6.9651626050E-002 
1800000000.000 +1.2180091441E-001 -7.8190267086E-003  +5.0424361229E-001 -1.6128689051E-001  -4.4773094356E-002 -4.6340948343E-001  +4.3924935162E-002 +1.2921698391E-001 
2000000000.000 +6.2305137515E-002 +2.0102046430E-002  -3.6869403720E-001 -2.7243304253E-001  -2.7440369129E-001 +2.7722936869E-001  +1.3020810485E-001 -3.4465186298E-002 
2200000000.000 +1.5351206064E-001 -1.6431806982E-001  -5.3619328886E-002 +4.0030705929E-001  +3.6059787869E-001 +5.6177906692E-002  +2.8095019981E-002 -2.6502478123E-001 
2400000000.000 -7.2821080685E-002 -1.2155379355E-001  +2.8351083398E-001 -3.3299925923E-001  -3.1024116278E-001 -2.6379036903E-001  -1.1723285168E-001 +7.2932250798E-002 
2600000000.000 +5.2882418036E-002 +1.0866789520E-001  -4.1296440363E-001 -6.5183013678E-001  -4.9693372846E-001 +1.8075445294E-001  +1.8840705976E-002 -5.2293393761E-002 
2800000000.000 +5.9486251324E-002 -2.2709023952E-001  +8.8818913698E-001 -4.6793207526E-002  -4.6536821127E-001 -5.5301469564E-001  -1.2739159167E-001 +1.1237353832E-001 
3000000000.000 +1.5006330609E-001 +1.6404509544E-001  -4.8730221391E-001 +7.1390235424E-001  +3.5608741641E-001 -6.4442670345E-001  -6.2706016004E-002 -1.2309120595E-001 
3200000000.000 -2.5128524750E-002 +1.4444680512E-001  -2.3738195002E-001 -7.8315716982E-001  +6.8788522482E-001 +1.0530519485E-001  +5.5050910451E-003 -7.2995878756E-002 
3400000000.000 +1.9985440373E-001 +1.3725842535E-001  +7.7504056692E-001 +2.4990265071E-001  +6.6314704716E-002 +7.3315548897E-001  -1.6793413460E-001 -1.1448852718E-002 
3600000000.000 +1.0360489786E-001 -3.4939654171E-002  -7.5010704994E-001 +4.1320204735E-001  -7.6207160950E-001 +3.9758336544E-001  -1.6973081231E-001 +1.1716134846E-002 
3800000000.000 -2.3057730496E-001 -2.0543678105E-001  +3.1058433652E-001 -8.3472847939E-001  -4.7220379114E-001 -6.7147809267E-001  +1.5250349045E-001 +1.0568410903E-001 
4000000000.000 +9.8961712793E-003 +1.0451064259E-001  +4.2796030641E-001 +7.8506380320E-001  +4.5419830084E-001 -6.1369311810E-001  -9.0672178194E-003 -7.5014226139E-002 
4200000000.000 +4.7498117201E-003 +1.7331529409E-002  -8.7462383509E-001 -2.9813405871E-001  +7.8916370869E-001 +3.4021353722E-001  -6.4611405134E-002 -3.3588759601E-002 
4400000000.000 -3.4542500973E-002 -8.3429560065E-002  +7.9642730951E-001 -3.5715100169E-001  -1.1850166321E-001 +8.9482015371E-001  +7.0428639650E-002 +7.6179482043E-002 
4600000000.000 +4.8407893628E-003 +8.3286901936E-003  -3.1570318341E-001 +8.0990523100E-001  -8.4914159775E-001 -5.9624850750E-002  -3.2225742936E-002 +6.5683253109E-002 
4800000000.000 -2.7583722025E-002 -5.5187260732E-003  -2.5015532970E-001 -8.3017212152E-001  -1.0409239680E-001 -8.1054759026E-001  -2.9678268358E-002 +1.5078855678E-002 
5000000000.000 +1.9002114236E-001 +7.1831800044E-002  +6.6873157024E-001 +4.5287245512E-001  +7.7952271700E-001 -3.5740181804E-001  -1.9309706986E-001 +2.2564247251E-002 
5200000000.000 +2.5163403153E-001 -1.7076465487E-001  -7.9742014408E-001 +6.9893598557E-002  +3.7549090385E-001 +8.2938569784E-001  +1.2125772983E-001 +2.0888058841E-001 
5400000000.000 -7.0356205106E-002 -8.6970910430E-002  +5.2571642399E-001 -5.6793671846E-001  -6.7297655344E-001 +4.3851035833E-001  +1.1980292201E-001 -8.4360651672E-002 
5600000000.000 +1.2420315295E-002 +6.9065764546E-002  -4.7766070813E-002 +7.2542685270E-001  -5.9282654524E-001 -4.9964842200E-001  +5.0969000906E-002 +1.7285836861E-002 
5800000000.000 -6.4538314939E-002 +1.5408220887E-001  -4.3720698357E-001 -5.3122001886E-001  +4.6657326818E-001 -6.2596648932E-001  -1.8719896674E-001 +4.2207308114E-002 
6000000000.000 +2.7161348611E-002 +1.1115334928E-002  +6.4782154560E-001 +1.0381948948E-001  +6.5310007334E-001 +4.0712144971E-001  -1.0808399320E-001 +2.0157068968E-002 
6200000000.000 +8.2989916205E-002 -2.1804873832E-003  -5.8735167980E-001 +2.6888477802E-001  -3.6270734668E-001 +5.9990751743E-001  +1.2043134868E-001 +1.1063864827E-001 
6400000000.000 -1.2514908612E-001 +1.4572173357E-001  +1.7103753984E-001 -6.0241198540E-001  -6.7978453636E-001 -1.1987949163E-001  -2.3434388638E-001 -7.9190827906E-002 
6600000000.000 +1.5088264644E-001 +4.3367814273E-002  +1.2925495207E-001 +6.2247407436E-001  +1.6223298013E-001 -6.7169898748E-001  -2.2114954889E-002 +1.1195074767E-001 
6800000000.000 +2.1737381816E-002 -2.3005526513E-002  -4.7253358364E-001 -4.2068302631E-001  +6.8748950958E-001 +1.0363850743E-001  -5.3391344845E-003 +3.0248489231E-002 
7000000000.000 +2.5364140049E-002 -6.7066676915E-002  +6.1227118969E-001 -3.7183027714E-002  +1.3645718992E-001 +6.0047030449E-001  +7.4056543410E-002 -9.7545273602E-002 
7200000000.000 -1.3024944067E-001 +2.4833565112E-003  -4.8493248224E-001 +3.5222089291E-001  -5.5417555571E-001 +1.7278398573E-001  +9.8549678922E-002 -6.7807763815E-002 
7400000000.000 -1.5128953755E-001 +6.3667133451E-002  +1.6673102975E-001 -5.4447060823E-001  -2.0151573420E-001 -5.4896563292E-001  -2.6623725891E-001 +7.2178957053E-003 
7600000000.000 +1.3001503050E-001 +1.0225386173E-001  +2.1820019186E-001 +5.2996689081E-001  +5.0362163782E-001 -2.4872022867E-001  +1.1123190075E-001 +7.7826283872E-002 
7800000000.000 -2.2548092902E-001 -4.8853848130E-002  -4.8180893064E-001 -2.8108736873E-001  +3.0554816127E-001 +4.0286409855E-001  -7.3396429420E-002 -4.6649973840E-002 
8000000000.000 +6.5124116838E-002 -2.5196393952E-002  +5.3621840477E-001 -3.9124131203E-002  -4.1628783941E-001 +3.1463843584E-001  +1.0059234686E-002 -5.0782872131E-004 
8200000000.000 -9.8997332156E-002 +6.8857349455E-002  -3.4472507238E-001 +3.6339423060E-001  -3.4670564532E-001 -3.4949055314E-001  -4.7400888056E-002 +6.8180263042E-002 
8400000000.000 +8.3660714328E-002 -1.6601523384E-002  +1.3189190626E-001 -4.4547739625E-001  +2.8109872341E-001 -3.6168801785E-001  +1.0406536749E-003 +5.4103555158E-003 
8600000000.000 +1.6027204692E-001 -4.5976221561E-002  +1.9742754102E-001 +3.5571581125E-001  +3.3688148856E-001 +2.2366912663E-001  +1.5903440118E-001 -1.0688957572E-001 
8800000000.000 -9.4215542078E-002 -7.1632489562E-002  -3.8815644383E-001 -1.4108689129E-001  -1.2381599844E-001 +4.0129476786E-001  -1.4658674598E-001 -1.0167187080E-002 
9000000000.000 -3.6702770740E-002 +3.8400512189E-002  +3.6815860868E-001 -9.3780472875E-002  -3.8187202811E-001 -1.1617629230E-001  -3.8253352977E-003 -1.4504331164E-002 
9200000000.000 -1.0106232762E-001 +6.5590135753E-002  -2.1486791968E-001 +3.0909442902E-001  +7.1123093367E-002 -3.6597687006E-001  +3.4728668630E-002 +1.5261405706E-001 
9400000000.000 +6.3454478979E-002 +2.0062450320E-002  -4.8862490803E-002 -3.5645732284E-001  +3.6143487692E-001 -1.5086521395E-002  +2.6952403132E-003 -4.5404247940E-002 
9600000000.000 -8.4608145058E-002 -7.6097898185E-002  +2.3589909077E-001 +2.5927633047E-001  +1.9975408912E-002 +3.5769876838E-001  -1.8979078159E-002 +1.4960655943E-002 
9800000000.000 +4.8718713224E-003 -3.7560738623E-002  -3.3584913611E-001 -5.5130843073E-002  -3.4969517589E-001 +7.4269093573E-002  -2.8445903212E-002 +5.3380068392E-002 
10000000000.000 -2.0552054048E-002 +3.5670727491E-002  +2.7854925394E-001 -1.6042135656E-001  -5.1151760854E-003 -3.2906645536E-001  -1.5302424319E-002 +4.8818219453E-002 
10200000000.000 +2.3606982082E-002 +2.1109858528E-002  -1.7144487798E-001 +2.7110594511E-001  +2.5742354989E-001 -1.8796260655E-001  -1.0257930495E-002 -7.4653096497E-002 
10400000000.000 +1.2461872399E-001 -2.2149173543E-002  -2.0576704293E-002 -2.9098209739E-001  +1.6041725874E-001 +2.7713459730E-001  -8.0685295165E-002 -5.1742840558E-002 
10600000000.000 -1.4790333807E-003 -7.9371534288E-002  +2.1168464422E-001 +2.1004284918E-001  -2.7985566854E-001 +1.2050507963E-001  -4.9794740975E-002 +1.2323902547E-001 
10800000000.000 -8.1513278186E-002 +1.2791274115E-002  -2.7071070671E-001 -7.7112875879E-002  -1.9046421349E-001 -2.2558943927E-001  +3.5001955926E-002 -4.3221987784E-002 
11000000000.000 +8.1461936235E-002 -2.8335629031E-003  +2.7515098453E-001 -8.7487667799E-002  +1.7654015124E-001 -2.4828006327E-001  +7.9514801502E-002 +1.3622538187E-002 
11200000000.000 -4.0820101276E-003 +9.2271126807E-002  -1.5077982843E-001 +2.2158302367E-001  +2.5108924508E-001 +1.5767879784E-001  -1.0047904402E-001 -5.6717425585E-002 
11400000000.000 +1.8512243405E-002 -2.6380991563E-002  -3.2230879879E-004 -2.6572957635E-001  -1.4216335118E-001 +2.6298898458E-001  +3.0991347507E-002 -6.8467292003E-003 
11600000000.000 +9.9961657543E-004 -1.5024286695E-002  +1.8417392671E-001 +1.6882686317E-001  -2.5131326914E-001 -1.0710915923E-001  +1.1667385697E-002 +1.4522773027E-001 
11800000000.000 -9.9024809897E-002 +8.3232261240E-002  -2.5051876903E-001 -6.0643195175E-003  +7.4617102742E-002 -2.6654249430E-001  -3.4975595772E-002 -1.4499819279E-001 
12000000000.000 +1.4800705016E-001 -2.7985861525E-003  +2.1307453513E-001 -9.8959945142E-002  +2.4558995664E-001 +8.9878983796E-002  -6.1909638345E-002 +3.7110425532E-002 
12200000000.000 +7.7978154877E-004 -8.9055217803E-002  -1.3766658306E-001 +1.7919813097E-001  -8.7087512016E-002 +2.3665210605E-001  -5.9317287058E-002 +7.0537239313E-002 
12400000000.000 +3.0159804970E-002 +1.2640870176E-002  +2.2443031892E-002 -2.3167790473E-001  -2.4574527144E-001 -7.9059787095E-002  +4.5360166579E-002 -2.6676397771E-002 
12600000000.000 +8.9410804212E-003 +1.4435164630E-002  +1.6345781088E-001 +1.5714415908E-001  +2.8764452785E-002 -2.5508862734E-001  -4.3152786791E-002 +3.6201942712E-002 
12800000000.000 +1.0717084631E-002 +4.9730841070E-002  -2.1920263767E-001 +4.5963977464E-003  +2.4884252250E-001 -4.7989260405E-002  +5.0959587097E-003 -1.0797565430E-001 
13000000000.000 +9.7737632692E-002 +4.9944195896E-002  +1.6830423474E-001 -1.2090041488E-001  +6.4792856574E-002 +2.2711840272E-001  -7.5323134661E-002 +1.2513600290E-001 
13200000000.000 -1.2655347586E-001 -1.2040156126E-001  -1.3944993913E-001 +1.6450302303E-001  -2.2550055385E-001 -1.0353606194E-002  +4.6908985823E-002 -9.7377218306E-002 
13400000000.000 -3.1130690128E-002 +1.2496010959E-001  +6.3548922539E-002 -1.8977022171E-001  +2.5479651988E-002 -2.2815604508E-001  +2.0007090643E-002 -7.1222677827E-002 
13600000000.000 -2.2934896871E-002 +1.5485343523E-002  +1.0193282366E-001 +1.8584901094E-001  +2.4229125679E-001 -3.1745217741E-002  -1.1080841720E-001 -1.2214728631E-002 
13800000000.000 +3.2685630023E-002 -3.7132132798E-002  -2.0034541190E-001 -7.4415750802E-002  +1.2477625906E-001 +1.9162441790E-001  +5.2202939987E-002 -5.0647675991E-002 
14000000000.000 +1.0417341255E-002 +1.1739535257E-003  +1.9014529884E-001 -7.4639588594E-002  -1.5987151861E-001 +1.4497657120E-001  +5.4066728801E-002 +4.1203960776E-002 
14200000000.000 -1.3574714959E-001 -2.8349464759E-002  -1.2371712923E-001 +1.6012527049E-001  -1.5969510376E-001 -1.3432696462E-001  +1.3540842570E-002 -1.2322507799E-001 
14400000000.000 +5.1111169159E-002 +3.6828033626E-002  +1.7465244979E-002 -1.9613870978E-001  +1.6738335788E-001 -1.3093689084E-001  -1.9426429644E-002 +2.0201509818E-002 
14600000000.000 +1.4466545545E-002 -3.4014154226E-002  +1.0320489109E-001 +1.6714575887E-001  +1.1514478922E-001 +1.6075778008E-001  +4.3434061110E-002 -2.6490683667E-003 
14800000000.000 -4.3069604784E-002 -3.3388528973E-002  -1.8998892605E-001 -5.8697994798E-002  -1.2156979740E-001 +1.5870743990E-001  +4.1827417910E-002 +2.0450092852E-002 
15000000000.000 +9.5535200089E-003 -5.6702461094E-002  +1.7973807454E-001 -8.4327332675E-002  -1.6981984675E-001 -1.0005229712E-001  -1.1520477012E-002 -8.3205744624E-002 
15200000000.000 -3.6795221269E-002 +9.7253799438E-002  -1.0296002775E-001 +1.7343211174E-001  +8.9981839061E-002 -1.6644707322E-001  -4.6205897816E-003 +2.9549246654E-002 
15400000000.000 +7.0123992860E-002 -1.9312268123E-002  -4.4225964695E-002 -1.9420430064E-001  +1.6451138258E-001 +8.8146738708E-002  +3.4338317811E-002 +7.0890836418E-002 
15600000000.000 +9.6827680245E-003 -5.0426781178E-002  +1.4843235910E-001 +1.4325314760E-001  -3.3906977624E-002 +1.8709301949E-001  +1.3264794834E-002 -8.9415423572E-002 
15800000000.000 -1.6252493486E-002 +2.6517298073E-002  -2.0243930817E-001 -6.4313381910E-002  -1.8562011421E-001 -2.7138933539E-002  +6.0338504612E-002 +6.6518262029E-002 
16000000000.000 +3.3190350980E-002 -5.9305652976E-002  +1.9098217785E-001 -7.3842868209E-002  +6.5298847854E-002 -1.7315140367E-001  -3.4192744642E-003 -6.8132467568E-002 
16200000000.000 -1.8690446392E-002 +6.9806881249E-002  -1.1012137681E-001 +1.7242826521E-001  +1.7241045833E-001 +3.2288741320E-002  -3.1280003488E-002 +6.5659008920E-002 
16400000000.000 +4.7264527529E-002 -2.7262493968E-003  -3.6241773516E-002 -1.9072923064E-001  -9.8440684378E-003 +1.6889785230E-001  +5.5606920272E-002 -3.8630414754E-002 
16600000000.000 -3.1972218305E-002 -5.0338391215E-002  +1.1583100259E-001 +1.4681260288E-001  -1.6842897236E-001 +2.5550981984E-002  +7.8510642052E-003 +1.3414967805E-002 
16800000000.000 +1.5722056851E-002 +8.3921477199E-002  -1.7194767296E-001 -8.9782580733E-002  -3.2578669488E-002 -1.6451938450E-001  -1.4966319315E-002 +8.8811777532E-002 
17000000000.000 -5.2581853233E-003 +1.1620924808E-002  +1.8325696886E-001 -3.4909080714E-002  +1.5646381676E-001 -3.4995961934E-002  +4.2410988361E-002 -9.2110693455E-002 
17200000000.000 +2.6770127937E-002 -1.0827704333E-002  -7.9840123653E-002 +1.5935075283E-001  +4.7678358853E-002 +1.4780260623E-001  +2.7121076360E-002 +1.2462993711E-001 
17400000000.000 +2.9491320252E-002 +7.5572706759E-002  -4.1313417256E-002 -1.6469009221E-001  -1.3682739437E-001 +6.2870703638E-002  -3.5491779447E-002 -2.7444610372E-002 
17600000000.000 -5.4748129100E-002 -3.4082584083E-002  +1.3456253707E-001 +9.8399378359E-002  -9.4742946327E-002 -1.1002967507E-001  +5.8773029596E-002 +1.0253042914E-002 
17800000000.000 -1.8539808691E-002 +7.3620662093E-002  -1.6196675599E-001 -1.9997326657E-002  +9.5573425293E-002 -1.0639937222E-001  -1.7741441261E-003 +7.9668715596E-002 
18000000000.000 +1.9092835486E-002 +1.8153902143E-002  +1.3857729733E-001 -8.1251621246E-002  +1.0899706930E-001 +8.7362863123E-002  -3.0146950856E-002 -6.9735482335E-002 
18200000000.000 -5.2543934435E-002 -8.6500167847E-002  -8.6985670030E-002 +1.4240109921E-001  -9.5974162221E-002 +1.0745937377E-001  -3.4279685467E-002 +1.2359470874E-001 
18400000000.000 -5.9296756983E-002 +6.1501238495E-002  -3.9096888155E-002 -1.4651347697E-001  -1.1253923923E-001 -6.5828368068E-002  +1.6773875803E-002 +4.4099841267E-002 
18600000000.000 -9.3256263062E-003 -7.7297016978E-002  +1.4834678173E-001 +7.5185164809E-002  +6.4829438925E-002 -1.1902147532E-001  -6.5260343254E-002 -2.2953173146E-002 
18800000000.000 -2.8408519924E-002 +2.7120808139E-002  -1.4582198858E-001 +1.7911529168E-002  +1.3073423505E-001 +3.3400177956E-002  +9.8651815206E-003 +2.9833471403E-002 
19000000000.000 +6.4263425767E-002 -2.5601722300E-002  +1.2638889253E-001 -1.0136335343E-001  -3.1748656183E-002 +1.3508766890E-001  -6.2391340733E-002 -1.0008968413E-002 
19200000000.000 -2.3604031652E-002 -1.3670887053E-001  -4.7984678298E-002 +1.3645860553E-001  -1.1661592871E-001 -3.4346539527E-002  -4.7152489424E-002 +5.3954064846E-002 
19400000000.000 +3.7121631205E-002 +1.0432683676E-001  -5.3231522441E-002 -1.5399320424E-001  +1.0841322131E-002 -1.3507550955E-001  +6.5476700664E-002 -7.2904877365E-002 
19600000000.000 +4.9517657608E-002 -5.5625431240E-002  +1.2518362701E-001 +9.0399995446E-002  +1.3278698921E-001 -3.6040000850E-005  -1.2671315670E-001 +1.7599714920E-002 
19800000000.000 +5.0916090608E-002 -1.8227816327E-004  -1.6290414333E-001 +2.2629179060E-002  +2.8979822528E-003 +1.4588199556E-001  +1.1299853213E-002 -2.5615852326E-002 
20000000000.000 -6.0237157159E-003 +1.7200557515E-002  +1.0896091908E-001 -1.1402301490E-001  -1.3296154141E-001 -3.6572832614E-002  -8.6031360552E-003 +5.0480369478E-002 
20200000000.000 +1.7224395648E-002 -7.6881296933E-002  -5.0032336265E-002 +1.3909222186E-001  -9.0135879815E-002 -9.8915658891E-002  -5.1245730370E-002 -2.8135417961E-003 
20400000000.000 -8.2936072722E-003 +9.6902392805E-002  -3.2854970545E-002 -1.4814677835E-001  +9.7528874874E-002 -9.7087599337E-002  -7.1189291775E-003 -6.5099723637E-002 
20600000000.000 +1.6342332587E-002 +2.1338572726E-002  +1.1089798063E-001 +8.9321598411E-002  +9.3473732471E-002 +8.6800932884E-002  -3.5585574806E-002 +8.7636470795E-002 
20800000000.000 +6.8989813328E-002 +7.5749534881E-004  -1.4314556122E-001 +4.2960548308E-004  -9.5065392554E-002 +8.5028670728E-002  -3.6124717444E-002 -2.1315049380E-002 
21000000000.000 -5.1275271922E-002 +2.0535141230E-003  +9.5803253353E-002 -9.3706890941E-002  -5.1764145494E-002 -1.1280886829E-001  +1.4000820927E-002 -1.3144793920E-002 
21200000000.000 -3.4373444505E-003 +8.7150335312E-002  -1.3708245941E-002 +1.2720577419E-001  +9.5043733716E-002 -5.8526229113E-002  -1.2682782114E-001 +3.7772465497E-002 
21400000000.000 -9.1263959184E-003 -2.4500792846E-002  -6.5744571388E-002 -1.2361613661E-001  +8.2888327539E-002 +8.9776590466E-002  +7.3892377317E-002 -8.0146938562E-003 
21600000000.000 -8.1185139716E-003 +6.7099176347E-002  +1.1046496034E-001 +6.3786156476E-002  -4.5267019421E-002 +9.8209328949E-002  -7.4961364269E-002 +1.3787986711E-002 
21800000000.000 -5.8717377484E-002 -1.5723006800E-002  -1.2923966348E-001 -1.0309596546E-002  -1.1261537671E-001 -1.9242564216E-002  -2.9859902337E-002 -6.6987790167E-002 
22000000000.000 -4.2159713805E-002 -5.5440273136E-002  +1.0353098065E-001 -5.8210432529E-002  +1.5041616745E-002 -9.8706655204E-002  -2.5735271629E-003 +1.5216898173E-002 
22200000000.000 +3.4393716604E-002 +1.1574988067E-001  -4.1646704078E-002 +1.2033974379E-001  +1.0770706832E-001 +4.2070625350E-003  -5.6863706559E-002 +2.6915511116E-002 
22400000000.000 -4.8747256398E-002 -1.1796201020E-001  -1.5064489096E-002 -1.2031738460E-001  -5.3698760457E-003 +1.0206557810E-001  +8.9159198105E-002 -1.2151357532E-001 
22600000000.000 -2.4526791647E-002 -1.3266813476E-003  +9.0086765587E-002 +8.7582953274E-002  -1.0113856196E-001 +1.8834235147E-002  -9.0818718076E-002 +2.0820030943E-002 
22800000000.000 +6.4202691428E-003 +1.2616112828E-002  -1.1942048371E-001 -2.2667642683E-002  -2.1832449362E-002 -1.0751023144E-001  +1.5187314712E-002 -1.2782825157E-002 
