!  2-Port S-parameters saved by WinCal
! VAR NAME=Switch Gamma term ports: 1, 2 (Switching Terms)
! VAR MeasName=S-Parameters (SWITCH_GAMMA) read from VNA (MS4647B)
! VAR MeasDate=09-Dec-21 16:34:30
! VAR CAL_PORTS=1,2
! VAR PHYS_PORTS=1,2
! VAR ObjTypeName=DATASET
! VAR IndexType=Frequency
! VAR FILENAME=switch_term.S2P
!
# Hz S RI R 50
200000000.000 +0.0000000000E+000 +0.0000000000E+000  +1.9434526563E-002 +5.5433508009E-002  +3.6354020238E-002 +3.8640893996E-002  +0.0000000000E+000 +0.0000000000E+000 
400000000.000 +0.0000000000E+000 +0.0000000000E+000  -4.4670816511E-002 +2.6515284553E-002  -4.5314137824E-003 +4.6890363097E-002  +0.0000000000E+000 +0.0000000000E+000 
600000000.000 +0.0000000000E+000 +0.0000000000E+000  -3.3434614539E-002 -2.9426399618E-002  -3.3548451960E-002 +2.6225021109E-002  +0.0000000000E+000 +0.0000000000E+000 
800000000.000 +0.0000000000E+000 +0.0000000000E+000  +1.6101749614E-002 -3.5418536514E-002  -3.5014465451E-002 -7.5701558962E-003  +0.0000000000E+000 +0.0000000000E+000 
1000000000.000 +0.0000000000E+000 +0.0000000000E+000  +3.5689525306E-002 +1.7464796081E-002  -1.1291047558E-002 -3.5150378942E-002  +0.0000000000E+000 +0.0000000000E+000 
1200000000.000 +0.0000000000E+000 +0.0000000000E+000  -2.1431557834E-002 +4.1302345693E-002  +2.8220454231E-002 -3.2044373453E-002  +0.0000000000E+000 +0.0000000000E+000 
1400000000.000 +0.0000000000E+000 +0.0000000000E+000  -4.2887803167E-002 -3.5512939095E-002  +4.7006715089E-002 +1.8559614196E-002  +0.0000000000E+000 +0.0000000000E+000 
1600000000.000 +0.0000000000E+000 +0.0000000000E+000  +4.5678038150E-002 -5.0822354853E-002  +6.6926062573E-004 +6.7723140121E-002  +0.0000000000E+000 +0.0000000000E+000 
1800000000.000 +0.0000000000E+000 +0.0000000000E+000  +6.4280927181E-002 +5.8077894151E-002  -7.4976667762E-002 +3.9337884635E-002  +0.0000000000E+000 +0.0000000000E+000 
2000000000.000 +0.0000000000E+000 +0.0000000000E+000  -6.8688407540E-002 +6.4402900636E-002  -8.3472050726E-002 -4.4150553644E-002  +0.0000000000E+000 +0.0000000000E+000 
2200000000.000 +0.0000000000E+000 +0.0000000000E+000  -6.0842495412E-002 -6.6485621035E-002  -1.3182792813E-002 -9.3595892191E-002  +0.0000000000E+000 +0.0000000000E+000 
2400000000.000 +0.0000000000E+000 +0.0000000000E+000  +6.5180055797E-002 -3.9436239749E-002  +6.8249352276E-002 -4.4966459274E-002  +0.0000000000E+000 +0.0000000000E+000 
2600000000.000 +0.0000000000E+000 +0.0000000000E+000  -1.9637897611E-002 +2.7834920213E-002  +2.9000670183E-003 -2.0215252414E-002  +0.0000000000E+000 +0.0000000000E+000 
2800000000.000 +0.0000000000E+000 +0.0000000000E+000  +3.3963508904E-002 -2.0386339165E-003  -8.5168834776E-003 +2.8362808749E-002  +0.0000000000E+000 +0.0000000000E+000 
3000000000.000 +0.0000000000E+000 +0.0000000000E+000  -2.6980649680E-002 -2.1463461220E-002  +3.0018350109E-002 -1.9444081932E-002  +0.0000000000E+000 +0.0000000000E+000 
3200000000.000 +0.0000000000E+000 +0.0000000000E+000  +1.0459793266E-003 +4.5136712492E-002  -3.1746488065E-002 -8.0715818331E-003  +0.0000000000E+000 +0.0000000000E+000 
3400000000.000 +0.0000000000E+000 +0.0000000000E+000  +3.6933965981E-002 -2.8559191152E-002  +2.2244015709E-002 +1.5494641848E-002  +0.0000000000E+000 +0.0000000000E+000 
3600000000.000 +0.0000000000E+000 +0.0000000000E+000  -3.8761612028E-002 -7.8471759334E-003  -1.5913598239E-002 -3.4997574985E-002  +0.0000000000E+000 +0.0000000000E+000 
3800000000.000 +0.0000000000E+000 +0.0000000000E+000  +2.1877007559E-002 +3.2932061702E-002  -2.3848533630E-002 +4.1525699198E-002  +0.0000000000E+000 +0.0000000000E+000 
4000000000.000 +0.0000000000E+000 +0.0000000000E+000  +2.0621329546E-002 -2.7057539672E-002  +3.5506781191E-002 -8.5811316967E-004  +0.0000000000E+000 +0.0000000000E+000 
4200000000.000 +0.0000000000E+000 +0.0000000000E+000  -1.6616383567E-002 +6.7942179739E-003  -1.1426428333E-002 +4.7233155929E-003  +0.0000000000E+000 +0.0000000000E+000 
4400000000.000 +0.0000000000E+000 +0.0000000000E+000  +2.1532999352E-002 -1.2821317650E-002  +3.3673189580E-002 -2.2589915898E-003  +0.0000000000E+000 +0.0000000000E+000 
4600000000.000 +0.0000000000E+000 +0.0000000000E+000  -3.7492278963E-002 -1.4320570044E-002  -1.9725458696E-002 -1.6497002915E-002  +0.0000000000E+000 +0.0000000000E+000 
4800000000.000 +0.0000000000E+000 +0.0000000000E+000  +1.0375864804E-002 +3.0401071534E-002  +1.2272658758E-002 -7.6353894547E-003  +0.0000000000E+000 +0.0000000000E+000 
5000000000.000 +0.0000000000E+000 +0.0000000000E+000  -2.2506383248E-003 -2.2496636957E-002  -3.8590013981E-002 -7.6808319427E-003  +0.0000000000E+000 +0.0000000000E+000 
5200000000.000 +0.0000000000E+000 +0.0000000000E+000  -1.6470493749E-002 +2.9973287135E-002  +1.8570017070E-002 +2.4892125279E-002  +0.0000000000E+000 +0.0000000000E+000 
5400000000.000 +0.0000000000E+000 +0.0000000000E+000  +3.0494958162E-002 +1.1745503871E-003  -1.2043440714E-002 -2.0849850029E-002  +0.0000000000E+000 +0.0000000000E+000 
5600000000.000 +0.0000000000E+000 +0.0000000000E+000  -1.4497919008E-002 -1.0891297832E-002  -9.2732021585E-003 +3.9174258709E-002  +0.0000000000E+000 +0.0000000000E+000 
5800000000.000 +0.0000000000E+000 +0.0000000000E+000  +1.1192223057E-002 +2.6541577652E-002  +4.1460994631E-002 -3.0371830799E-003  +0.0000000000E+000 +0.0000000000E+000 
6000000000.000 +0.0000000000E+000 +0.0000000000E+000  +2.9515825212E-002 -2.4917826056E-002  -1.4963908121E-002 -1.5199402347E-002  +0.0000000000E+000 +0.0000000000E+000 
6200000000.000 +0.0000000000E+000 +0.0000000000E+000  -3.1778614968E-002 -1.5077700838E-002  +2.1679483354E-002 +1.0735066608E-002  +0.0000000000E+000 +0.0000000000E+000 
6400000000.000 +0.0000000000E+000 +0.0000000000E+000  -1.9139460055E-003 +2.6076130569E-002  +9.2513924465E-003 -3.6993104964E-002  +0.0000000000E+000 +0.0000000000E+000 
6600000000.000 +0.0000000000E+000 +0.0000000000E+000  +2.2175541148E-002 -2.4501906708E-002  -3.5918008536E-002 +1.3681191951E-002  +0.0000000000E+000 +0.0000000000E+000 
6800000000.000 +0.0000000000E+000 +0.0000000000E+000  -3.8758944720E-002 -7.9403650016E-003  +2.7433754876E-002 +1.3335550204E-002  +0.0000000000E+000 +0.0000000000E+000 
7000000000.000 +0.0000000000E+000 +0.0000000000E+000  -6.8156407215E-003 +3.6334242672E-002  -1.0455570184E-002 -3.9381492883E-002  +0.0000000000E+000 +0.0000000000E+000 
7200000000.000 +0.0000000000E+000 +0.0000000000E+000  +2.3012543097E-002 -1.4375876635E-002  -3.8115967065E-002 +3.2122977078E-002  +0.0000000000E+000 +0.0000000000E+000 
7400000000.000 +0.0000000000E+000 +0.0000000000E+000  -3.2298769802E-002 -1.0454172269E-002  +3.4418497235E-002 +2.0302271470E-002  +0.0000000000E+000 +0.0000000000E+000 
7600000000.000 +0.0000000000E+000 +0.0000000000E+000  -3.0428990722E-003 +4.6646110713E-002  -4.4444599189E-003 -1.3451687060E-002  +0.0000000000E+000 +0.0000000000E+000 
7800000000.000 +0.0000000000E+000 +0.0000000000E+000  +4.9312241375E-002 +2.0320640760E-004  +1.0906687006E-002 +2.8104655445E-002  +0.0000000000E+000 +0.0000000000E+000 
8000000000.000 +0.0000000000E+000 +0.0000000000E+000  -7.8209815547E-003 -2.9587442055E-002  +3.5190917552E-002 -3.4544423223E-002  +0.0000000000E+000 +0.0000000000E+000 
8200000000.000 +0.0000000000E+000 +0.0000000000E+000  -3.6408363376E-003 +2.2760432214E-002  -3.3385638148E-002 -3.3191412687E-002  +0.0000000000E+000 +0.0000000000E+000 
8400000000.000 +0.0000000000E+000 +0.0000000000E+000  +3.6381371319E-002 -2.0161954686E-002  -7.1550714783E-003 +1.9903589040E-002  +0.0000000000E+000 +0.0000000000E+000 
8600000000.000 +0.0000000000E+000 +0.0000000000E+000  -2.2243745625E-002 -4.8037983477E-002  -3.1039365567E-003 -2.3255212232E-002  +0.0000000000E+000 +0.0000000000E+000 
8800000000.000 +0.0000000000E+000 +0.0000000000E+000  -3.9487723261E-002 +1.2782193720E-002  -4.4762540609E-002 +1.6547445208E-002  +0.0000000000E+000 +0.0000000000E+000 
9000000000.000 +0.0000000000E+000 +0.0000000000E+000  +1.3029211201E-002 +1.5016279183E-002  +2.2663511336E-002 +4.3199460953E-002  +0.0000000000E+000 +0.0000000000E+000 
9200000000.000 +0.0000000000E+000 +0.0000000000E+000  -1.2174550444E-002 -1.6371399164E-002  +2.1925270557E-002 -1.4105220325E-002  +0.0000000000E+000 +0.0000000000E+000 
9400000000.000 +0.0000000000E+000 +0.0000000000E+000  -2.5849284604E-002 +2.2212857381E-002  -7.4357641861E-003 +8.1004826352E-003  +0.0000000000E+000 +0.0000000000E+000 
9600000000.000 +0.0000000000E+000 +0.0000000000E+000  +2.9488140717E-002 +1.7696913332E-002  +2.5489140302E-002 -1.2186133245E-004  +0.0000000000E+000 +0.0000000000E+000 
9800000000.000 +0.0000000000E+000 +0.0000000000E+000  +7.2369207628E-003 -2.6932055131E-002  -7.3916027322E-003 -2.3081265390E-002  +0.0000000000E+000 +0.0000000000E+000 
10000000000.000 +0.0000000000E+000 +0.0000000000E+000  -2.2862218320E-002 +4.4596637599E-003  -2.2711697966E-003 +1.5619282611E-002  +0.0000000000E+000 +0.0000000000E+000 
10200000000.000 +0.0000000000E+000 +0.0000000000E+000  +7.1783494204E-003 +1.8427932635E-002  +1.7139982432E-002 -1.4723678119E-002  +0.0000000000E+000 +0.0000000000E+000 
10400000000.000 +0.0000000000E+000 +0.0000000000E+000  +8.3085661754E-003 -1.1727424338E-002  -2.1089401096E-002 -1.0213726200E-002  +0.0000000000E+000 +0.0000000000E+000 
10600000000.000 +0.0000000000E+000 +0.0000000000E+000  -1.9650014117E-002 +5.9842905030E-003  -5.4476950318E-003 +8.2699293271E-003  +0.0000000000E+000 +0.0000000000E+000 
10800000000.000 +0.0000000000E+000 +0.0000000000E+000  +1.1533149518E-002 +2.5357360020E-002  -1.3301081024E-002 -2.2730180062E-003  +0.0000000000E+000 +0.0000000000E+000 
11000000000.000 +0.0000000000E+000 +0.0000000000E+000  +2.1877737716E-002 -5.5145896040E-003  -1.1949391104E-002 +2.7500428259E-002  +0.0000000000E+000 +0.0000000000E+000 
11200000000.000 +0.0000000000E+000 +0.0000000000E+000  +4.7324495972E-004 -5.1365881227E-003  +2.4905266240E-002 +1.7470100895E-002  +0.0000000000E+000 +0.0000000000E+000 
11400000000.000 +0.0000000000E+000 +0.0000000000E+000  +1.6736235470E-002 -4.2082178406E-003  +1.0910324752E-002 -4.0710214525E-003  +0.0000000000E+000 +0.0000000000E+000 
11600000000.000 +0.0000000000E+000 +0.0000000000E+000  +3.2757921144E-003 -3.5125244409E-002  +2.0963095129E-002 +4.8529654741E-003  +0.0000000000E+000 +0.0000000000E+000 
11800000000.000 +0.0000000000E+000 +0.0000000000E+000  -2.8173865750E-002 -1.5624485910E-002  +2.0350115374E-002 -3.3174894750E-002  +0.0000000000E+000 +0.0000000000E+000 
12000000000.000 +0.0000000000E+000 +0.0000000000E+000  -1.0602572002E-002 +1.0242830031E-002  -3.0701115727E-002 -2.0222023129E-002  +0.0000000000E+000 +0.0000000000E+000 
12200000000.000 +0.0000000000E+000 +0.0000000000E+000  -1.6395425424E-002 +1.2249790598E-003  -1.4148259535E-002 +6.4784060232E-003  +0.0000000000E+000 +0.0000000000E+000 
12400000000.000 +0.0000000000E+000 +0.0000000000E+000  -7.1945437230E-003 +3.3274948597E-002  -1.9971325994E-002 +2.3922442924E-003  +0.0000000000E+000 +0.0000000000E+000 
12600000000.000 +0.0000000000E+000 +0.0000000000E+000  +2.9032498598E-002 +1.6823872924E-002  -1.3680295087E-002 +2.3453572765E-002  +0.0000000000E+000 +0.0000000000E+000 
12800000000.000 +0.0000000000E+000 +0.0000000000E+000  +1.5852350742E-002 -1.3706956990E-002  +6.5053203143E-003 +1.8752992153E-002  +0.0000000000E+000 +0.0000000000E+000 
13000000000.000 +0.0000000000E+000 +0.0000000000E+000  -9.4178654253E-003 -2.7226071688E-004  +8.1952996552E-003 +3.3822071273E-003  +0.0000000000E+000 +0.0000000000E+000 
13200000000.000 +0.0000000000E+000 +0.0000000000E+000  +1.8572565168E-002 +1.0105594061E-002  +8.0894408748E-003 +4.7374577262E-003  +0.0000000000E+000 +0.0000000000E+000 
13400000000.000 +0.0000000000E+000 +0.0000000000E+000  +3.1568838749E-003 -2.5102011859E-002  +1.5948150307E-002 -8.8903279975E-003  +0.0000000000E+000 +0.0000000000E+000 
13600000000.000 +0.0000000000E+000 +0.0000000000E+000  -1.7637476325E-002 +1.3044823427E-003  +2.1302958485E-003 -1.2527633458E-002  +0.0000000000E+000 +0.0000000000E+000 
13800000000.000 +0.0000000000E+000 +0.0000000000E+000  +9.7980070859E-003 +1.3090659864E-002  +2.9511058237E-003 -5.4581114091E-003  +0.0000000000E+000 +0.0000000000E+000 
14000000000.000 +0.0000000000E+000 +0.0000000000E+000  +1.2023044750E-002 -1.3222350739E-002  -1.0169795714E-003 -1.5325561166E-002  +0.0000000000E+000 +0.0000000000E+000 
14200000000.000 +0.0000000000E+000 +0.0000000000E+000  -5.0713936798E-003 -3.5196354147E-003  -1.1271447875E-002 -1.7891336465E-003  +0.0000000000E+000 +0.0000000000E+000 
14400000000.000 +0.0000000000E+000 +0.0000000000E+000  +1.2163092382E-002 -1.2183229439E-002  -9.2118908651E-004 -4.7799139284E-003  +0.0000000000E+000 +0.0000000000E+000 
14600000000.000 +0.0000000000E+000 +0.0000000000E+000  -2.2938165814E-002 -2.9657801613E-002  -2.1012913436E-002 -5.2486802451E-003  +0.0000000000E+000 +0.0000000000E+000 
14800000000.000 +0.0000000000E+000 +0.0000000000E+000  -4.0046382695E-002 +4.5064315200E-003  -1.0185891762E-002 +2.1575260907E-002  +0.0000000000E+000 +0.0000000000E+000 
15000000000.000 +0.0000000000E+000 +0.0000000000E+000  -8.6643304676E-003 +1.8888888881E-002  +5.1389890723E-003 +8.5917096585E-003  +0.0000000000E+000 +0.0000000000E+000 
15200000000.000 +0.0000000000E+000 +0.0000000000E+000  -1.1615632102E-002 +7.1291932836E-003  -2.4326345883E-003 +1.8095722422E-002  +0.0000000000E+000 +0.0000000000E+000 
15400000000.000 +0.0000000000E+000 +0.0000000000E+000  -9.8221581429E-003 +3.5604935139E-002  +2.6706287637E-002 +1.6546059400E-002  +0.0000000000E+000 +0.0000000000E+000 
15600000000.000 +0.0000000000E+000 +0.0000000000E+000  +3.2597314566E-002 +2.7591118589E-002  +2.6001052931E-002 -1.2584901415E-002  +0.0000000000E+000 +0.0000000000E+000 
15800000000.000 +0.0000000000E+000 +0.0000000000E+000  +2.6568895206E-002 -1.1439342983E-002  +7.2101284750E-003 -2.2986292839E-002  +0.0000000000E+000 +0.0000000000E+000 
16000000000.000 +0.0000000000E+000 +0.0000000000E+000  +8.7711177766E-003 -5.0214529037E-003  -1.9275166094E-002 -3.0681971461E-002  +0.0000000000E+000 +0.0000000000E+000 
16200000000.000 +0.0000000000E+000 +0.0000000000E+000  +2.3884253576E-002 -1.7231045291E-002  -4.0227722377E-002 +6.0332361609E-003  +0.0000000000E+000 +0.0000000000E+000 
16400000000.000 +0.0000000000E+000 +0.0000000000E+000  -5.1047448069E-003 -3.8891233504E-002  -7.9624857754E-003 +2.7983313426E-002  +0.0000000000E+000 +0.0000000000E+000 
16600000000.000 +0.0000000000E+000 +0.0000000000E+000  -3.1610820442E-002 -1.2387054041E-002  +1.8273418536E-003 +3.8178556133E-003  +0.0000000000E+000 +0.0000000000E+000 
16800000000.000 +0.0000000000E+000 +0.0000000000E+000  -1.4863672666E-002 +9.3979537487E-003  -6.0823471285E-003 +2.0371789113E-002  +0.0000000000E+000 +0.0000000000E+000 
17000000000.000 +0.0000000000E+000 +0.0000000000E+000  -1.4463069849E-002 +3.9174682461E-003  +2.3073609918E-002 +1.6293734312E-002  +0.0000000000E+000 +0.0000000000E+000 
17200000000.000 +0.0000000000E+000 +0.0000000000E+000  -1.5589753166E-002 +1.7911937088E-002  +1.9604036584E-002 -6.4724218100E-003  +0.0000000000E+000 +0.0000000000E+000 
17400000000.000 +0.0000000000E+000 +0.0000000000E+000  +5.0413697027E-003 +2.3691968992E-002  +1.9427046180E-002 -1.3112885877E-002  +0.0000000000E+000 +0.0000000000E+000 
17600000000.000 +0.0000000000E+000 +0.0000000000E+000  +1.1678222567E-002 +4.5148767531E-003  +1.0687280446E-003 -2.6746416464E-002  +0.0000000000E+000 +0.0000000000E+000 
17800000000.000 +0.0000000000E+000 +0.0000000000E+000  +4.1275937110E-003 +6.2528491253E-004  -1.1831965297E-002 -4.5076245442E-003  +0.0000000000E+000 +0.0000000000E+000 
18000000000.000 +0.0000000000E+000 +0.0000000000E+000  +2.5809365325E-003 +1.7522035632E-003  -1.8269554712E-003 -1.2377396226E-002  +0.0000000000E+000 +0.0000000000E+000 
18200000000.000 +0.0000000000E+000 +0.0000000000E+000  +3.7321430864E-004 +4.6488549560E-003  -2.7014235035E-002 -3.8468122948E-003  +0.0000000000E+000 +0.0000000000E+000 
18400000000.000 +0.0000000000E+000 +0.0000000000E+000  +9.3805147335E-003 +7.2061093524E-003  -1.2896608096E-003 +2.3246545345E-002  +0.0000000000E+000 +0.0000000000E+000 
18600000000.000 +0.0000000000E+000 +0.0000000000E+000  +1.1970219202E-002 -1.8224648666E-003  +5.4595386609E-003 -1.5643302351E-002  +0.0000000000E+000 +0.0000000000E+000 
18800000000.000 +0.0000000000E+000 +0.0000000000E+000  +2.1047641058E-003 +2.6742476039E-003  -3.3865150064E-002 +1.7852725461E-002  +0.0000000000E+000 +0.0000000000E+000 
19000000000.000 +0.0000000000E+000 +0.0000000000E+000  +2.0430764183E-002 +5.9646647424E-003  +2.7483170852E-002 +3.6206766963E-002  +0.0000000000E+000 +0.0000000000E+000 
19200000000.000 +0.0000000000E+000 +0.0000000000E+000  +1.4499721117E-002 -3.3897794783E-002  +1.5680981800E-002 -1.8921911716E-002  +0.0000000000E+000 +0.0000000000E+000 
19400000000.000 +0.0000000000E+000 +0.0000000000E+000  -3.1265806407E-002 -1.8530178815E-002  -1.5117118135E-002 +1.9352743402E-002  +0.0000000000E+000 +0.0000000000E+000 
19600000000.000 +0.0000000000E+000 +0.0000000000E+000  -9.9560245872E-003 +1.1787020601E-002  +5.7216737419E-002 +4.9098269083E-003  +0.0000000000E+000 +0.0000000000E+000 
19800000000.000 +0.0000000000E+000 +0.0000000000E+000  +1.0669459589E-002 -1.8783546984E-002  -2.8227718547E-002 -6.3175231218E-002  +0.0000000000E+000 +0.0000000000E+000 
20000000000.000 +0.0000000000E+000 +0.0000000000E+000  -4.9788568169E-002 -1.1942696758E-002  -3.4908909351E-002 +2.3548955098E-002  +0.0000000000E+000 +0.0000000000E+000 
20200000000.000 +0.0000000000E+000 +0.0000000000E+000  -4.6426750720E-002 +2.8768649325E-002  +4.3901000172E-003 -1.4357891865E-002  +0.0000000000E+000 +0.0000000000E+000 
20400000000.000 +0.0000000000E+000 +0.0000000000E+000  +2.2180758417E-002 +2.9754715040E-002  -5.6599691510E-002 +1.3103635982E-002  +0.0000000000E+000 +0.0000000000E+000 
20600000000.000 +0.0000000000E+000 +0.0000000000E+000  -2.4284222163E-003 -1.6971385106E-002  +2.6269182563E-002 +6.8230405450E-002  +0.0000000000E+000 +0.0000000000E+000 
20800000000.000 +0.0000000000E+000 +0.0000000000E+000  -2.5852555409E-002 +3.7212949246E-002  +3.9478328079E-002 -4.0899585932E-002  +0.0000000000E+000 +0.0000000000E+000 
21000000000.000 +0.0000000000E+000 +0.0000000000E+000  +4.8499494791E-002 +4.3018158525E-002  -1.5410427935E-002 +3.7401621230E-003  +0.0000000000E+000 +0.0000000000E+000 
21200000000.000 +0.0000000000E+000 +0.0000000000E+000  +3.7366807461E-002 -4.4235318899E-002  +4.2488839477E-002 -1.0236142203E-002  +0.0000000000E+000 +0.0000000000E+000 
21400000000.000 +0.0000000000E+000 +0.0000000000E+000  -3.3146336675E-002 -1.5122174285E-002  -2.1307995543E-002 -5.8919638395E-002  +0.0000000000E+000 +0.0000000000E+000 
21600000000.000 +0.0000000000E+000 +0.0000000000E+000  +1.4985155314E-002 +2.9464066029E-002  -4.3845541775E-002 +2.3809371516E-002  +0.0000000000E+000 +0.0000000000E+000 
21800000000.000 +0.0000000000E+000 +0.0000000000E+000  +3.1867809594E-002 -3.3597171307E-002  +2.2965792567E-002 +5.0753364339E-003  +0.0000000000E+000 +0.0000000000E+000 
22000000000.000 +0.0000000000E+000 +0.0000000000E+000  -3.6827404052E-002 -2.2842483595E-002  -3.0856246129E-002 -1.8893260509E-002  +0.0000000000E+000 +0.0000000000E+000 
22200000000.000 +0.0000000000E+000 +0.0000000000E+000  +1.1009909213E-003 +3.2297920436E-002  -8.6517939344E-003 +4.4927291572E-002  +0.0000000000E+000 +0.0000000000E+000 
22400000000.000 +0.0000000000E+000 +0.0000000000E+000  +2.8263883665E-002 -2.7946442366E-002  +3.0651183799E-002 -1.0121895000E-002  +0.0000000000E+000 +0.0000000000E+000 
22600000000.000 +0.0000000000E+000 +0.0000000000E+000  -4.0456175804E-002 -1.9677482545E-002  -3.1842261553E-002 -2.5230841711E-003  +0.0000000000E+000 +0.0000000000E+000 
