!  2-Port S-parameters saved by WinCal
! VAR MeasName=S-Parameters (CALIBRATED_DATA) read from VNA (MS4647B)
! VAR MeasDate=16-Sep-21 11:28:36
! VAR NAME=14ps_1800u
! VAR FILENAME=14ps_1800u.S2P
! VAR DATE=16-Sep-21 11:28:36
! VAR PHYS_PORTS=1,2
! VAR ObjTypeName=DATASET
! VAR IndexType=Frequency
!
# Hz S RI R 50
200000000.000 +2.0849748980E-003 +8.5665646475E-004  +9.9738430977E-001 -1.6762102023E-002  +9.9707275629E-001 -1.7106719315E-002  +2.0900687668E-003 +1.0335545521E-003 
400000000.000 +2.5159495417E-003 +1.6155568883E-003  +9.9580121040E-001 -3.5649362952E-002  +9.9638301134E-001 -3.4050133079E-002  +2.4716886692E-003 +1.4664382907E-003 
600000000.000 +3.0582582112E-003 +2.0617288537E-003  +9.9573564529E-001 -5.0335649401E-002  +9.9473029375E-001 -5.1762852818E-002  +3.1417671125E-003 +1.7754237633E-003 
800000000.000 +3.3379916567E-003 +2.3977046367E-003  +9.9375957251E-001 -6.7414790392E-002  +9.9430805445E-001 -6.7366108298E-002  +3.3240474295E-003 +2.0551641937E-003 
1000000000.000 +3.1044362113E-003 +2.6105912402E-003  +9.9266779423E-001 -8.3659440279E-002  +9.9287194014E-001 -8.4796354175E-002  +3.4732064232E-003 +2.1551721729E-003 
1200000000.000 +3.5762996413E-003 +3.9109867066E-003  +9.9018913507E-001 -9.9835447967E-002  +9.9097430706E-001 -1.0118574649E-001  +3.9454735816E-003 +1.9617439248E-003 
1400000000.000 +2.5039501488E-003 +2.8001395985E-003  +9.8757791519E-001 -1.1697444320E-001  +9.8855221272E-001 -1.1654734612E-001  +4.0991841815E-003 +2.8045172803E-003 
1600000000.000 +3.6655466538E-003 +2.9401625507E-003  +9.8557198048E-001 -1.3251908123E-001  +9.8563385010E-001 -1.3290150464E-001  +4.0341238491E-003 +2.4668886326E-003 
1800000000.000 +4.5500700362E-003 +3.2721213065E-003  +9.8227667809E-001 -1.4890685678E-001  +9.8355937004E-001 -1.4904984832E-001  +4.2908820324E-003 +2.6649988722E-003 
2000000000.000 +4.3772100471E-003 +3.6032602657E-003  +9.8124974966E-001 -1.6461223364E-001  +9.8053354025E-001 -1.6450506449E-001  +4.1659097187E-003 +2.6634696405E-003 
2200000000.000 +5.2223363891E-003 +3.5495508928E-003  +9.7817939520E-001 -1.8052902818E-001  +9.7769856453E-001 -1.8073700368E-001  +5.8327168226E-003 +3.2133292407E-003 
2400000000.000 +6.1868359335E-003 +4.5905928127E-003  +9.7408646345E-001 -1.9744965434E-001  +9.7442352772E-001 -1.9612719119E-001  +5.5208434351E-003 +2.5090442505E-003 
2600000000.000 +5.7732374407E-003 +4.0398873389E-003  +9.7143703699E-001 -2.1425075829E-001  +9.7134208679E-001 -2.1451811492E-001  +6.0785780661E-003 +2.8809795622E-003 
2800000000.000 +6.4053526148E-003 +4.0239752270E-003  +9.6798431873E-001 -2.3021374643E-001  +9.6757644415E-001 -2.3045563698E-001  +6.5408167429E-003 +2.9026954435E-003 
3000000000.000 +6.4585511573E-003 +4.1644820012E-003  +9.6311336756E-001 -2.4619078636E-001  +9.6331417561E-001 -2.4524469674E-001  +6.6969939508E-003 +2.9024758842E-003 
3200000000.000 +6.7137191072E-003 +4.1398983449E-003  +9.5822501183E-001 -2.6183840632E-001  +9.5911699533E-001 -2.6214709878E-001  +6.8336878903E-003 +2.3679928854E-003 
3400000000.000 +6.9068199955E-003 +4.3122377247E-003  +9.5393443108E-001 -2.7772125602E-001  +9.5403838158E-001 -2.7784460783E-001  +7.1526081301E-003 +2.3153619841E-003 
3600000000.000 +7.2211395018E-003 +3.9240750484E-003  +9.4909965992E-001 -2.9366350174E-001  +9.4861835241E-001 -2.9311856627E-001  +7.1097286418E-003 +2.2954412270E-003 
3800000000.000 +7.5384336524E-003 +4.5449668542E-003  +9.4362694025E-001 -3.0921700597E-001  +9.4401305914E-001 -3.0884581804E-001  +7.4817617424E-003 +2.1271572914E-003 
4000000000.000 +7.5140236877E-003 +4.3058726005E-003  +9.3883794546E-001 -3.2441782951E-001  +9.3837320805E-001 -3.2389613986E-001  +7.9639228061E-003 +1.9160744268E-003 
4200000000.000 +7.9691847786E-003 +4.4630523771E-003  +9.3288522959E-001 -3.4046387672E-001  +9.3275582790E-001 -3.3963739872E-001  +8.0123776570E-003 +2.3647537455E-003 
4400000000.000 +7.9269036651E-003 +4.3276147917E-003  +9.2670404911E-001 -3.5518717766E-001  +9.2724835873E-001 -3.5493871570E-001  +8.2876868546E-003 +2.0531385671E-003 
4600000000.000 +8.3127999678E-003 +4.3990816921E-003  +9.2020916939E-001 -3.7008762360E-001  +9.2073768377E-001 -3.6990380287E-001  +8.5469456390E-003 +2.0151180215E-003 
4800000000.000 +8.1578828394E-003 +4.1391705163E-003  +9.1481077671E-001 -3.8447463512E-001  +9.1469299793E-001 -3.8525983691E-001  +8.7179895490E-003 +1.6374055995E-003 
5000000000.000 +8.7667191401E-003 +4.5014685020E-003  +9.0791994333E-001 -3.9986073971E-001  +9.0772628784E-001 -3.9935541153E-001  +8.5258446634E-003 +1.5527294017E-003 
5200000000.000 +8.8861035183E-003 +4.4208364561E-003  +9.0081030130E-001 -4.1518580914E-001  +9.0113848448E-001 -4.1409111023E-001  +8.5484487936E-003 +1.5065649059E-003 
5400000000.000 +8.7287975475E-003 +3.9673447609E-003  +8.9428561926E-001 -4.2942333221E-001  +8.9377492666E-001 -4.2988789082E-001  +9.2423334718E-003 +1.3588655274E-003 
5600000000.000 +9.4275316224E-003 +4.3824608438E-003  +8.8684248924E-001 -4.4418817759E-001  +8.8669031858E-001 -4.4369968772E-001  +9.5004420727E-003 +1.1677696602E-003 
5800000000.000 +9.2136766762E-003 +4.3069319800E-003  +8.7842905521E-001 -4.5786690712E-001  +8.7851440907E-001 -4.5772689581E-001  +9.8014567047E-003 +9.9609652534E-004 
6000000000.000 +9.7018405795E-003 +4.3004858308E-003  +8.7097036839E-001 -4.7282242775E-001  +8.7105572224E-001 -4.7293716669E-001  +9.4116022810E-003 +7.6387560694E-004 
6200000000.000 +9.5356125385E-003 +3.8881960791E-003  +8.6270332336E-001 -4.8684248328E-001  +8.6336570978E-001 -4.8650860786E-001  +1.0006541386E-002 +4.7595120850E-004 
6400000000.000 +1.0165696032E-002 +4.2462423444E-003  +8.5482829809E-001 -5.0016802549E-001  +8.5462164879E-001 -5.0017583370E-001  +1.0025854222E-002 +6.0794578167E-004 
6600000000.000 +1.0078820400E-002 +4.0990356356E-003  +8.4618371725E-001 -5.1406103373E-001  +8.4674227238E-001 -5.1453673840E-001  +1.0437059216E-002 -3.5778555321E-004 
6800000000.000 +1.0256321169E-002 +3.6162792239E-003  +8.3861988783E-001 -5.2835100889E-001  +8.3822691441E-001 -5.2756023407E-001  +1.0768186301E-002 -2.0108098397E-004 
7000000000.000 +1.0640038177E-002 +3.6207102239E-003  +8.2872992754E-001 -5.4171884060E-001  +8.2938158512E-001 -5.4157638550E-001  +1.0367216542E-002 -4.7087998246E-004 
7200000000.000 +1.0930545628E-002 +3.2031531446E-003  +8.1992459297E-001 -5.5484515429E-001  +8.2013881207E-001 -5.5480587482E-001  +1.1187696829E-002 -4.9403292360E-004 
7400000000.000 +1.1291497387E-002 +3.7270023022E-003  +8.1059253216E-001 -5.6868904829E-001  +8.1077027321E-001 -5.6809508801E-001  +1.0531245731E-002 +9.5072260592E-005 
7600000000.000 +1.1154644191E-002 +2.3596535902E-003  +8.0109506845E-001 -5.8146190643E-001  +8.0161315203E-001 -5.8147019148E-001  +1.0918200947E-002 -1.1280996259E-003 
7800000000.000 +1.1768908240E-002 +3.1052778941E-003  +7.9173314571E-001 -5.9480410814E-001  +7.9196721315E-001 -5.9440237284E-001  +1.0900125839E-002 -1.0494951857E-003 
8000000000.000 +1.1633714661E-002 +2.7989449445E-003  +7.8106880188E-001 -6.0752648115E-001  +7.8178244829E-001 -6.0735476017E-001  +1.0596475564E-002 -1.7207054188E-003 
8200000000.000 +1.1840298772E-002 +2.9826120008E-003  +7.7145987749E-001 -6.2081706524E-001  +7.7127730846E-001 -6.1981040239E-001  +1.0617000982E-002 -2.0454786718E-003 
8400000000.000 +1.1486344039E-002 +2.5401334278E-003  +7.6088064909E-001 -6.3252121210E-001  +7.6140540838E-001 -6.3322967291E-001  +1.0944968089E-002 -2.6078512892E-003 
8600000000.000 +1.1840085499E-002 +2.0811909344E-003  +7.5043547153E-001 -6.4536809921E-001  +7.5067412853E-001 -6.4476150274E-001  +1.1429688893E-002 -2.1912059747E-003 
8800000000.000 +1.2201915495E-002 +2.4889658671E-003  +7.3960119486E-001 -6.5779662132E-001  +7.4023264647E-001 -6.5755790472E-001  +1.2004786171E-002 -3.1680886168E-003 
9000000000.000 +1.1637669988E-002 +2.2701853886E-003  +7.2905403376E-001 -6.6955637932E-001  +7.2911047935E-001 -6.6887903214E-001  +1.2366614304E-002 -3.8857336622E-003 
9200000000.000 +1.1991741136E-002 +2.0954930224E-003  +7.1745938063E-001 -6.8131995201E-001  +7.1817350388E-001 -6.8106102943E-001  +1.2025490403E-002 -3.1158416532E-003 
9400000000.000 +1.1987160891E-002 +1.0589092271E-003  +7.0697933435E-001 -6.9210737944E-001  +7.0721578598E-001 -6.9268828630E-001  +1.1171368882E-002 -2.8969696723E-003 
9600000000.000 +1.2667777017E-002 +2.0234726835E-003  +6.9478070736E-001 -7.0393496752E-001  +6.9554036856E-001 -7.0399540663E-001  +1.1438969523E-002 -3.4863806795E-003 
9800000000.000 +1.1883860454E-002 +1.6352593666E-003  +6.8364328146E-001 -7.1491843462E-001  +6.8343091011E-001 -7.1512448788E-001  +1.1472711340E-002 -4.2565613985E-003 
10000000000.000 +1.2388641015E-002 +1.4531868510E-003  +6.7110097408E-001 -7.2666859627E-001  +6.7174434662E-001 -7.2592920065E-001  +1.1157339439E-002 -4.4349147938E-003 
10200000000.000 +1.2146560475E-002 +7.8589230543E-004  +6.5900641680E-001 -7.3695695400E-001  +6.5942651033E-001 -7.3685610294E-001  +1.0708530433E-002 -4.7164023854E-003 
10400000000.000 +1.2829567306E-002 +1.7460369272E-003  +6.4680659771E-001 -7.4755841494E-001  +6.4796912670E-001 -7.4701440334E-001  +1.1338791810E-002 -4.8743863590E-003 
10600000000.000 +1.2193580158E-002 +1.4617139241E-003  +6.3488084078E-001 -7.5853246450E-001  +6.3515257835E-001 -7.5847738981E-001  +1.0920237750E-002 -4.7681792639E-003 
10800000000.000 +1.2522476725E-002 +4.2916554958E-004  +6.2188208103E-001 -7.6891523600E-001  +6.2246811390E-001 -7.6843911409E-001  +1.1048215441E-002 -5.1278374158E-003 
11000000000.000 +1.2453058735E-002 +1.1199644068E-003  +6.0959523916E-001 -7.7832406759E-001  +6.0972356796E-001 -7.7818363905E-001  +1.0027456097E-002 -4.8781326041E-003 
11200000000.000 +1.2109057046E-002 +6.7659991328E-004  +5.9579896927E-001 -7.8903657198E-001  +5.9691047668E-001 -7.8816443682E-001  +1.0109116323E-002 -6.4575043507E-003 
11400000000.000 +1.2262563221E-002 +8.6009455845E-004  +5.8319950104E-001 -7.9918295145E-001  +5.8382385969E-001 -7.9772847891E-001  +9.1329216957E-003 -7.1159210056E-003 
11600000000.000 +1.2134484015E-002 +1.0932757141E-004  +5.7087516785E-001 -8.0793368816E-001  +5.7027190924E-001 -8.0766999722E-001  +8.8679119945E-003 -7.2667803615E-003 
11800000000.000 +1.2970834039E-002 +1.0383820627E-003  +5.5705118179E-001 -8.1686335802E-001  +5.5743604898E-001 -8.1704288721E-001  +1.0402304120E-002 -7.2410535067E-003 
12000000000.000 +1.1807981879E-002 +4.7945746337E-004  +5.4348605871E-001 -8.2597792149E-001  +5.4381829500E-001 -8.2528978586E-001  +1.0190919973E-002 -9.2106526718E-003 
12200000000.000 +1.2514282949E-002 +1.8620815536E-004  +5.2983564138E-001 -8.3579176664E-001  +5.3062826395E-001 -8.3422958851E-001  +1.2405210175E-002 -7.8668361530E-003 
12400000000.000 +1.2947201729E-002 +7.4336142279E-004  +5.1670265198E-001 -8.4292155504E-001  +5.1677066088E-001 -8.4306365252E-001  +1.1331042275E-002 -6.9580054842E-003 
12600000000.000 +1.2757592835E-002 -1.2069759396E-004  +5.0247156620E-001 -8.5114878416E-001  +5.0284922123E-001 -8.5080260038E-001  +1.0557663627E-002 -6.7901387811E-003 
12800000000.000 +1.1888100766E-002 +6.1924297370E-006  +4.8724222183E-001 -8.5990852118E-001  +4.8894613981E-001 -8.5953879356E-001  +8.8739134371E-003 -6.5029636025E-003 
13000000000.000 +1.1734420434E-002 -6.1370391631E-004  +4.7416415811E-001 -8.6742180586E-001  +4.7423213720E-001 -8.6751478910E-001  +9.7278179601E-003 -6.3985004090E-003 
13200000000.000 +1.3214358129E-002 +1.1477678781E-003  +4.5992854238E-001 -8.7474095821E-001  +4.6067163348E-001 -8.7359648943E-001  +8.9385872707E-003 -6.0583152808E-003 
13400000000.000 +1.2525043450E-002 -1.0372329270E-003  +4.4512292743E-001 -8.8278466463E-001  +4.4626155496E-001 -8.8252991438E-001  +7.6910126954E-003 -1.1384148151E-002 
13600000000.000 +1.2321281247E-002 -8.5622334154E-004  +4.3057823181E-001 -8.9002591372E-001  +4.3175482750E-001 -8.8966310024E-001  +7.9239122570E-003 -1.0354614817E-002 
13800000000.000 +1.2468472123E-002 -1.2890693324E-004  +4.1710004210E-001 -8.9620232582E-001  +4.1625407338E-001 -8.9656352997E-001  +7.6664295048E-003 -9.2580625787E-003 
14000000000.000 +1.3626422733E-002 -4.5261913328E-004  +4.0156528354E-001 -9.0405547619E-001  +4.0216466784E-001 -9.0363508463E-001  +8.7731592357E-003 -1.0274589993E-002 
14200000000.000 +1.2786934152E-002 +2.2151894518E-004  +3.8675814867E-001 -9.1014373302E-001  +3.8714116812E-001 -9.1053950787E-001  +9.8510906100E-003 -1.1222746223E-002 
14400000000.000 +1.1199418455E-002 -8.2362286048E-004  +3.7039169669E-001 -9.1702157259E-001  +3.7236642838E-001 -9.1584473848E-001  +1.1668468826E-002 -1.0335585102E-002 
14600000000.000 +1.3110926375E-002 -6.7299063085E-004  +3.5472446680E-001 -9.2236435413E-001  +3.5748389363E-001 -9.2265266180E-001  +9.4581944868E-003 -9.6796061844E-003 
14800000000.000 +1.2478057295E-002 -9.5621001674E-004  +3.4141534567E-001 -9.2807012796E-001  +3.4160920978E-001 -9.2759919167E-001  +7.9033924267E-003 -1.0414982215E-002 
15000000000.000 +1.2510165572E-002 -3.6500434362E-005  +3.2509943843E-001 -9.3386137486E-001  +3.2616311312E-001 -9.3323230743E-001  +8.8560581207E-003 -1.0339126922E-002 
15200000000.000 +1.2247838080E-002 -7.0219632471E-004  +3.1001201272E-001 -9.3927937746E-001  +3.1092172861E-001 -9.3907761574E-001  +9.7658568993E-003 -1.1297200806E-002 
15400000000.000 +1.4009980485E-002 -1.4742654748E-003  +2.9550194740E-001 -9.4436788559E-001  +2.9504838586E-001 -9.4476532936E-001  +1.1744395830E-002 -1.0741882958E-002 
15600000000.000 +1.2876666151E-002 -2.6111715124E-004  +2.7863645554E-001 -9.4910734892E-001  +2.7952238917E-001 -9.4818234444E-001  +7.9083489254E-003 -1.1196171865E-002 
15800000000.000 +1.1519693770E-002 -2.4731198209E-004  +2.6382935047E-001 -9.5288145542E-001  +2.6399615407E-001 -9.5295298100E-001  +9.7145056352E-003 -9.7304396331E-003 
16000000000.000 +1.1668710969E-002 -2.1031791402E-004  +2.4683171511E-001 -9.5725864172E-001  +2.4762864411E-001 -9.5696222782E-001  +9.3121491373E-003 -9.5730619505E-003 
16200000000.000 +1.2818011455E-002 -1.0071648285E-003  +2.3075371981E-001 -9.6059912443E-001  +2.3296347260E-001 -9.6137911081E-001  +9.9825123325E-003 -1.0433341376E-002 
16400000000.000 +1.2608282268E-002 +3.5983594717E-004  +2.1567893028E-001 -9.6490412951E-001  +2.1714453399E-001 -9.6539950371E-001  +6.7445579916E-003 -9.1607253999E-003 
16600000000.000 +1.1469108053E-002 -1.5277676284E-003  +1.9818043709E-001 -9.6806156635E-001  +2.0073367655E-001 -9.6893864870E-001  +8.3152931184E-003 -1.1635304429E-002 
16800000000.000 +1.2764767744E-002 -2.1029496565E-003  +1.8469230831E-001 -9.7129029036E-001  +1.8358275294E-001 -9.7165560722E-001  +8.7638562545E-003 -1.1269180104E-002 
17000000000.000 +1.2663930655E-002 -1.0516477050E-003  +1.6726844013E-001 -9.7422796488E-001  +1.6780950129E-001 -9.7408008575E-001  +8.2811107859E-003 -1.2840608135E-002 
17200000000.000 +1.2279273011E-002 -1.1024351697E-003  +1.4935138822E-001 -9.7656387091E-001  +1.5167266130E-001 -9.7732675076E-001  +1.2011178769E-002 -1.0454749689E-002 
17400000000.000 +1.2804551050E-002 -5.9370958479E-004  +1.3463310897E-001 -9.7880667448E-001  +1.3705790043E-001 -9.7880154848E-001  +1.1316726916E-002 -9.9871251732E-003 
17600000000.000 +1.2111743912E-002 -1.6379175941E-003  +1.1757174134E-001 -9.8199230433E-001  +1.1949924380E-001 -9.8175257444E-001  +8.3140926436E-003 -1.0683123954E-002 
17800000000.000 +1.2472312897E-002 +8.8633474661E-005  +1.0270968825E-001 -9.8279744387E-001  +1.0377468169E-001 -9.8242795467E-001  +5.5180052295E-003 -8.8993795216E-003 
18000000000.000 +1.0640523396E-002 -1.1800423963E-003  +8.4387049079E-002 -9.8480820656E-001  +8.5959106684E-002 -9.8580789566E-001  +4.4453339651E-003 -8.6479894817E-003 
18200000000.000 +1.5009380877E-002 -9.9874590524E-004  +7.1249395609E-002 -9.8545587063E-001  +7.3067523539E-002 -9.8597151041E-001  +5.0993426703E-003 -9.3992147595E-003 
18400000000.000 +1.2088296935E-002 +2.2811818053E-004  +5.2018020302E-002 -9.8832368851E-001  +5.3325366229E-002 -9.8747545481E-001  -3.6434466892E-005 -8.4613859653E-003 
18600000000.000 +1.0270982049E-002 -1.6059065238E-003  +3.7885718048E-002 -9.8692333698E-001  +3.8964342326E-002 -9.8740977049E-001  +2.3107652087E-003 -8.6805392057E-003 
18800000000.000 +1.2439734302E-002 -2.0631519146E-003  +2.0160887390E-002 -9.8808413744E-001  +2.1274138242E-002 -9.8816519976E-001  +5.4102572612E-003 -1.0553708300E-002 
19000000000.000 +1.4715805650E-002 -2.5818075519E-003  +4.7992309555E-003 -9.8842996359E-001  +5.8954278938E-003 -9.8942869902E-001  +7.4887671508E-003 -1.2721881270E-002 
19200000000.000 +1.0828780010E-002 +1.6110579018E-003  -1.2143470347E-002 -9.9155730009E-001  -1.2423176318E-002 -9.9298882484E-001  +6.2679202529E-004 -6.6691134125E-003 
19400000000.000 +1.1679560877E-002 -1.2099600863E-003  -2.6870103553E-002 -9.9127852917E-001  -2.7050554752E-002 -9.9267655611E-001  +5.7976599783E-003 -8.5573578253E-003 
19600000000.000 +1.5551296994E-002 -3.1946159434E-003  -4.4220030308E-002 -9.8943120241E-001  -4.5080482960E-002 -9.9071049690E-001  +6.2840371393E-003 -1.1241813190E-002 
19800000000.000 +1.2170785107E-002 -2.3919059895E-003  -6.1729963869E-002 -9.8890525103E-001  -6.0396827757E-002 -9.9055916071E-001  +5.5879750289E-003 -1.1601768434E-002 
20000000000.000 +1.3053175993E-002 -5.7367433328E-004  -7.8843377531E-002 -9.8679482937E-001  -7.7008917928E-002 -9.8842501640E-001  +6.7468578927E-003 -9.9762706086E-003 
20200000000.000 +1.4174703509E-002 -1.0236346861E-003  -9.4556510448E-002 -9.8492181301E-001  -9.3480512500E-002 -9.8642158508E-001  +9.0550184250E-003 -9.9931973964E-003 
20400000000.000 +1.6028197482E-002 -4.6277386136E-003  -1.0948631167E-001 -9.8445516825E-001  -1.1023614556E-001 -9.8537421227E-001  +7.8676827252E-003 -1.2983003631E-002 
20600000000.000 +1.2259843759E-002 +5.7672010735E-004  -1.2789921463E-001 -9.8087030649E-001  -1.2700870633E-001 -9.8263269663E-001  +5.6342268363E-003 -8.6695048958E-003 
20800000000.000 +1.4751134440E-002 -2.0032059401E-003  -1.4410291612E-001 -9.7973245382E-001  -1.4276848733E-001 -9.8046839237E-001  +1.1432722211E-002 -1.1734635569E-002 
21000000000.000 +1.5261460096E-002 -1.6572718741E-003  -1.5770430863E-001 -9.7607290745E-001  -1.5720039606E-001 -9.7790598869E-001  +9.9940663204E-003 -1.1696251109E-002 
21200000000.000 +1.0202920064E-002 +8.1460207002E-004  -1.7548543215E-001 -9.7279971838E-001  -1.7487518489E-001 -9.7491204739E-001  +5.6539503857E-003 -8.5240909830E-003 
21400000000.000 +1.3627955690E-002 -8.1997690722E-004  -1.9021841884E-001 -9.7015404701E-001  -1.9022683799E-001 -9.7146809101E-001  +7.7018025331E-003 -9.4162318856E-003 
21600000000.000 +1.5434301458E-002 -2.4947100319E-003  -2.0768994093E-001 -9.6652776003E-001  -2.0772518218E-001 -9.6794092655E-001  +9.3595553190E-003 -1.2431292795E-002 
21800000000.000 +1.4384058304E-002 -1.1993246153E-003  -2.2324188054E-001 -9.6303570271E-001  -2.2192080319E-001 -9.6104836464E-001  +5.3397947922E-003 -1.0093962774E-002 
22000000000.000 +1.0493648238E-002 +3.2637355616E-004  -2.3750799894E-001 -9.5940893888E-001  -2.3528605700E-001 -9.5698738098E-001  +4.9224151298E-003 -8.4718260914E-003 
22200000000.000 +1.3747891411E-002 -5.1469955361E-004  -2.5357064605E-001 -9.5503634214E-001  -2.5155496597E-001 -9.5256227255E-001  +9.6518732607E-003 -9.4794761389E-003 
22400000000.000 +1.7829481512E-002 -1.0831153486E-003  -2.6740872860E-001 -9.4839078188E-001  -2.6612138748E-001 -9.4806063175E-001  +1.0188589804E-002 -1.0345011950E-002 
22600000000.000 +1.3786382973E-002 -1.7014596378E-003  -2.8494584560E-001 -9.4265407324E-001  -2.8260210156E-001 -9.4295763969E-001  +4.9992804416E-003 -8.1681711599E-003 
22800000000.000 +1.3281366788E-002 -2.0321875345E-003  -2.9964280128E-001 -9.3684577942E-001  -2.9932335019E-001 -9.3677276373E-001  +7.1362773888E-003 -9.7205638885E-003 
