!  2-Port S-parameters saved by WinCal
! VAR MeasName=S-Parameters (CALIBRATED_DATA) read from VNA (MS4647B)
! VAR MeasDate=16-Sep-21 11:47:30
! VAR NAME=3ps_450u
! VAR FILENAME=3ps_450u.S2P
! VAR DATE=16-Sep-21 11:47:30
! VAR PHYS_PORTS=1,2
! VAR ObjTypeName=DATASET
! VAR IndexType=Frequency
!
# Hz S RI R 50
200000000.000 -5.8249564609E-004 -4.0638505016E-004  +1.0008722544E+000 -2.8164102696E-003  +1.0003386736E+000 -2.9123588465E-003  -6.0170254437E-004 -1.5357423399E-004 
400000000.000 -7.9182960326E-004 -4.3342661229E-005  +1.0001499653E+000 -7.0621715859E-003  +9.9994480610E-001 -6.5770857036E-003  -7.1401509922E-004 -2.3580225388E-005 
600000000.000 -4.7281529987E-004 -2.2287530010E-004  +1.0008779764E+000 -9.0286182240E-003  +1.0003516674E+000 -1.0575813241E-002  -5.0660449779E-004 -3.6627758527E-004 
800000000.000 -5.4356479086E-004 +1.2781354599E-004  +1.0005542040E+000 -1.1884513311E-002  +1.0004223585E+000 -1.2961283326E-002  -3.1537006726E-004 +5.2872090600E-004 
1000000000.000 -9.6822722116E-004 -4.5602582395E-004  +1.0011564493E+000 -1.7310440540E-002  +1.0007193089E+000 -1.8091820180E-002  -8.7785988580E-004 -4.8541493015E-004 
1200000000.000 -3.9759738138E-004 -3.6909140181E-004  +1.0001721382E+000 -2.0300246775E-002  +1.0012166500E+000 -2.1858731285E-002  -5.7872617617E-004 -4.3288344750E-004 
1400000000.000 -8.8158197468E-004 +3.3089323551E-004  +9.9957025051E-001 -2.4033300579E-002  +1.0009120703E+000 -2.4591617286E-002  -2.5731165078E-004 +3.7646578858E-004 
1600000000.000 -7.9778896179E-004 -9.0943038231E-004  +1.0008336306E+000 -2.6807077229E-002  +9.9962526560E-001 -2.8802407905E-002  -9.8720507231E-004 -6.0193176614E-004 
1800000000.000 -3.2497989014E-004 -6.5082206856E-004  +1.0000852346E+000 -3.0171684921E-002  +1.0002233982E+000 -3.2765034586E-002  -5.4868560983E-004 -6.5649574390E-004 
2000000000.000 -1.2908419594E-003 -1.1631015223E-003  +1.0012637377E+000 -3.2664351165E-002  +1.0005947351E+000 -3.5224035382E-002  -1.9127056003E-003 -1.0375860147E-003 
2200000000.000 -7.1610976011E-004 -1.2502381578E-003  +1.0000450611E+000 -3.6711614579E-002  +9.9995189905E-001 -3.8828987628E-002  +2.9432176962E-004 -1.4307200909E-003 
2400000000.000 +5.0813733833E-004 -3.0875421362E-004  +9.9958169460E-001 -4.1195504367E-002  +9.9911880493E-001 -4.1603293270E-002  -1.0638262756E-004 -5.4914923385E-004 
2600000000.000 -5.1630893722E-004 -8.2845048746E-004  +9.9951589108E-001 -4.5648816973E-002  +9.9965912104E-001 -4.4981461018E-002  -6.5710482886E-005 -9.8658131901E-004 
2800000000.000 +9.0593930508E-005 -1.0313889943E-003  +9.9945479631E-001 -4.9105335027E-002  +9.9946588278E-001 -5.0589237362E-002  -1.5202374198E-004 -1.0129758157E-003 
3000000000.000 -3.1493109418E-004 -9.4239512691E-004  +9.9899291992E-001 -5.2381303161E-002  +9.9884665012E-001 -5.1025301218E-002  -2.0231440431E-005 -8.9212914463E-004 
3200000000.000 -1.3103232777E-004 -1.1479551904E-003  +9.9796122313E-001 -5.6269325316E-002  +9.9851471186E-001 -5.5982124060E-002  -7.7885822975E-005 -1.0961779626E-003 
3400000000.000 -3.1114488957E-004 -1.1240813183E-003  +9.9818938971E-001 -5.9318494052E-002  +9.9880975485E-001 -6.0036100447E-002  -2.3259484442E-004 -1.7003872199E-003 
3600000000.000 +1.2204271479E-004 -1.6355690314E-003  +9.9797511101E-001 -6.3330225646E-002  +9.9783784151E-001 -6.3292346895E-002  -1.7390288122E-004 -1.8764717970E-003 
3800000000.000 +3.6596387508E-004 -8.5293489974E-004  +9.9829280376E-001 -6.7040711641E-002  +9.9784344435E-001 -6.6411770880E-002  +5.5515483837E-006 -1.6237342497E-003 
4000000000.000 -2.8739398113E-004 -1.4516793890E-003  +9.9765175581E-001 -7.0198282599E-002  +9.9701350927E-001 -6.9702066481E-002  +1.2899090507E-005 -2.2238073871E-003 
4200000000.000 +1.0031203419E-004 -1.3388174120E-003  +9.9737131596E-001 -7.4583277106E-002  +9.9708145857E-001 -7.3953822255E-002  +1.5748120495E-004 -1.8091428792E-003 
4400000000.000 -3.8263577153E-004 -1.4325963566E-003  +9.9657458067E-001 -7.7565975487E-002  +9.9708247185E-001 -7.6668359339E-002  +1.1457833352E-005 -1.8967122305E-003 
4600000000.000 -3.3512998925E-005 -1.6216771910E-003  +9.9656474590E-001 -8.0483734608E-002  +9.9714130163E-001 -8.0358155072E-002  +2.2440482280E-004 -1.9209405873E-003 
4800000000.000 -6.6348415567E-004 -2.0343982615E-003  +9.9683809280E-001 -8.3701826632E-002  +9.9714845419E-001 -8.3705917001E-002  -2.5328714401E-004 -2.5154496543E-003 
5000000000.000 -2.0008640422E-004 -2.0213115495E-003  +9.9643069506E-001 -8.7431639433E-002  +9.9567228556E-001 -8.6924709380E-002  -1.0178621778E-005 -2.2001385223E-003 
5200000000.000 +7.0407681051E-005 -1.5565620270E-003  +9.9589288235E-001 -9.1809019446E-002  +9.9587166309E-001 -9.0069308877E-002  -4.2572052917E-004 -2.1483912133E-003 
5400000000.000 -6.1345269205E-004 -2.5608285796E-003  +9.9566638470E-001 -9.3587040901E-002  +9.9551874399E-001 -9.4535879791E-002  -2.8110475978E-004 -2.9125539586E-003 
5600000000.000 +3.7343565054E-005 -1.7510132166E-003  +9.9502968788E-001 -9.8083131015E-002  +9.9559164047E-001 -9.7365342081E-002  +1.5045089822E-004 -2.5084745139E-003 
5800000000.000 -6.5598805668E-004 -1.9044195069E-003  +9.9453204870E-001 -1.0072585195E-001  +9.9459552765E-001 -1.0068511963E-001  +1.4008629660E-004 -2.7395787183E-003 
6000000000.000 -5.8047942730E-005 -1.9886032678E-003  +9.9506074190E-001 -1.0549751669E-001  +9.9405848980E-001 -1.0461124033E-001  +1.8378855020E-004 -2.8997650370E-003 
6200000000.000 -7.5509020826E-004 -2.5769937783E-003  +9.9436575174E-001 -1.0852424055E-001  +9.9394577742E-001 -1.0754728317E-001  +4.3958127094E-007 -3.3310223371E-003 
6400000000.000 -6.1804988945E-005 -2.2160750814E-003  +9.9328875542E-001 -1.1214064062E-001  +9.9317133427E-001 -1.1076395959E-001  +4.8782365047E-004 -2.6892756578E-003 
6600000000.000 -5.0366180949E-004 -1.9720722921E-003  +9.9350208044E-001 -1.1513432115E-001  +9.9290746450E-001 -1.1461219937E-001  +1.3032606512E-004 -2.7798730880E-003 
6800000000.000 -3.9920740528E-004 -3.0427635647E-003  +9.9280685186E-001 -1.1857144535E-001  +9.9215680361E-001 -1.1762740463E-001  -1.3113384193E-004 -3.0573501717E-003 
7000000000.000 -4.1140669964E-006 -2.5239260867E-003  +9.9199694395E-001 -1.2227466702E-001  +9.9259686470E-001 -1.2115366757E-001  -2.2252769850E-004 -3.2715937123E-003 
7200000000.000 +8.5318439233E-005 -3.1723168213E-003  +9.9236941338E-001 -1.2560893595E-001  +9.9192082882E-001 -1.2482302636E-001  +1.5470967628E-004 -3.3991546370E-003 
7400000000.000 +3.9110166836E-004 -2.2360594012E-003  +9.9120217562E-001 -1.2909471989E-001  +9.9143326283E-001 -1.2724079192E-001  -5.8659625938E-004 -2.7584489435E-003 
7600000000.000 -1.5288226132E-004 -3.8481920492E-003  +9.9073708057E-001 -1.3243125379E-001  +9.9135887623E-001 -1.3139717281E-001  -6.3055899227E-004 -4.4173747301E-003 
7800000000.000 +8.6045381613E-004 -3.2597021200E-003  +9.9081945419E-001 -1.3633812964E-001  +9.9115598202E-001 -1.3487631083E-001  +3.3286388498E-004 -4.0147956461E-003 
8000000000.000 +6.3238822622E-004 -3.2423362136E-003  +9.9028050900E-001 -1.3957753778E-001  +9.9009954929E-001 -1.3863903284E-001  +1.6259402037E-004 -4.2616231367E-003 
8200000000.000 +9.5720967511E-004 -3.0203091446E-003  +9.8983025551E-001 -1.4312604070E-001  +9.8957121372E-001 -1.4160424471E-001  +2.6052264730E-004 -4.1233515367E-003 
8400000000.000 +1.2561955373E-004 -3.1905432697E-003  +9.8962545395E-001 -1.4630483091E-001  +9.8987114429E-001 -1.4580661058E-001  -1.2855455861E-004 -4.5027043670E-003 
8600000000.000 +7.0767244324E-004 -4.6043689363E-003  +9.8906958103E-001 -1.4940054715E-001  +9.8894762993E-001 -1.4805477858E-001  +3.0959188007E-004 -4.5707854442E-003 
8800000000.000 +7.9860800179E-004 -2.5749043562E-003  +9.8855113983E-001 -1.5350079536E-001  +9.8863178492E-001 -1.5255054832E-001  +5.6452135323E-004 -3.8271802478E-003 
9000000000.000 -2.1639119950E-004 -3.5396325402E-003  +9.8828077316E-001 -1.5686388314E-001  +9.8788917065E-001 -1.5588538349E-001  +5.0456344616E-004 -4.8545948230E-003 
9200000000.000 -1.1682824697E-004 -3.1313938089E-003  +9.8775345087E-001 -1.5973322093E-001  +9.8712575436E-001 -1.5902009606E-001  +3.1918875175E-004 -4.5019895770E-003 
9400000000.000 +5.3419771575E-005 -5.3266128525E-003  +9.8699611425E-001 -1.6311542690E-001  +9.8725169897E-001 -1.6177462041E-001  -6.0310511617E-004 -5.9832795523E-003 
9600000000.000 +1.1096176459E-003 -3.6996279377E-003  +9.8643124104E-001 -1.6695304215E-001  +9.8645585775E-001 -1.6549646854E-001  +5.3759961156E-004 -4.7521400265E-003 
9800000000.000 -5.4731022101E-004 -3.9412002079E-003  +9.8535585403E-001 -1.7020651698E-001  +9.8568558693E-001 -1.6938830912E-001  +1.4359240595E-004 -5.2687716670E-003 
10000000000.000 +6.8403891055E-004 -4.1805338115E-003  +9.8514616489E-001 -1.7439757288E-001  +9.8515844345E-001 -1.7322067916E-001  +6.1028014170E-004 -5.3673037328E-003 
10200000000.000 +1.4445323905E-004 -4.7194049694E-003  +9.8426681757E-001 -1.7678768933E-001  +9.8425173759E-001 -1.7616721988E-001  -3.9859878598E-004 -6.3571161591E-003 
10400000000.000 +6.5910420381E-004 -4.0888320655E-003  +9.8347264528E-001 -1.8066658080E-001  +9.8403668404E-001 -1.7923712730E-001  +3.7935748696E-004 -5.8312281035E-003 
10600000000.000 -4.9200735521E-004 -3.3325282857E-003  +9.8334830999E-001 -1.8363638222E-001  +9.8329800367E-001 -1.8348990381E-001  -4.5693051652E-004 -5.1181218587E-003 
10800000000.000 -3.3481366700E-004 -5.4419729859E-003  +9.8262429237E-001 -1.8741659820E-001  +9.8274713755E-001 -1.8703533709E-001  -4.2862875853E-004 -6.8951607682E-003 
11000000000.000 +2.3264407355E-004 -4.4801416807E-003  +9.8210841417E-001 -1.9125831127E-001  +9.8173284531E-001 -1.9032701850E-001  -2.8839331935E-004 -6.3972994685E-003 
11200000000.000 -6.5555755282E-004 -5.3334594704E-003  +9.8112314939E-001 -1.9543355703E-001  +9.8085898161E-001 -1.9369898736E-001  +3.6313660530E-005 -7.7576139010E-003 
11400000000.000 -4.2297319851E-006 -4.4260364957E-003  +9.8118919134E-001 -1.9904546440E-001  +9.8091018200E-001 -1.9641390443E-001  +1.3349877554E-004 -6.9313305430E-003 
11600000000.000 -6.6754670115E-004 -5.4984837770E-003  +9.8044604063E-001 -2.0144425333E-001  +9.7987157106E-001 -2.0064529777E-001  -3.7542730570E-004 -8.0875270069E-003 
11800000000.000 +6.0716661392E-004 -4.8028165475E-003  +9.7908824682E-001 -2.0498222113E-001  +9.7997939587E-001 -2.0368082821E-001  +1.5301193343E-003 -6.5889353864E-003 
12000000000.000 -9.7803829703E-004 -4.3743825518E-003  +9.7843235731E-001 -2.0878672600E-001  +9.7827911377E-001 -2.0680843294E-001  +9.4989016361E-005 -6.4411456697E-003 
12200000000.000 -1.5535193961E-003 -6.6656460986E-003  +9.7839355469E-001 -2.1194866300E-001  +9.7796428204E-001 -2.0989990234E-001  +2.1340051899E-004 -7.2241313756E-003 
12400000000.000 -4.5910989866E-004 -5.0109364092E-003  +9.7755044699E-001 -2.1497565508E-001  +9.7747194767E-001 -2.1494945884E-001  +5.2216503536E-004 -6.0634184629E-003 
12600000000.000 -4.2874921928E-004 -5.6277555414E-003  +9.7679644823E-001 -2.1855290234E-001  +9.7658926249E-001 -2.1745687723E-001  -7.9219207691E-005 -6.2627424486E-003 
12800000000.000 -4.0826489567E-004 -5.7065738365E-003  +9.7591120005E-001 -2.2231468558E-001  +9.7581416368E-001 -2.2072868049E-001  -1.3820234453E-003 -7.0887119509E-003 
13000000000.000 -1.0692223441E-003 -8.2515943795E-003  +9.7493594885E-001 -2.2510175407E-001  +9.7531139851E-001 -2.2387786210E-001  -1.6135550104E-003 -8.6621623486E-003 
13200000000.000 +2.3639667779E-003 -6.0873208568E-003  +9.7528737783E-001 -2.2932930291E-001  +9.7457242012E-001 -2.2822771966E-001  +3.6359243677E-004 -7.4047166854E-003 
13400000000.000 +1.2640196655E-004 -3.9679585025E-003  +9.7351187468E-001 -2.3249585927E-001  +9.7454977036E-001 -2.3120336235E-001  +3.5254581599E-004 -7.6864012517E-003 
13600000000.000 -7.0143479388E-004 -6.2166159041E-003  +9.7297447920E-001 -2.3514927924E-001  +9.7284215689E-001 -2.3375988007E-001  -5.2359665278E-004 -1.0180669837E-002 
13800000000.000 -1.0378818261E-003 -5.7485201396E-003  +9.7173994780E-001 -2.3909947276E-001  +9.7206646204E-001 -2.3761220276E-001  -3.6954096868E-004 -8.6390497163E-003 
14000000000.000 -4.4816843001E-005 -5.7815667242E-003  +9.7147762775E-001 -2.4274241924E-001  +9.7119677067E-001 -2.4196188152E-001  +6.9285073550E-004 -8.5168508813E-003 
14200000000.000 -7.0344947744E-004 -3.1618403737E-003  +9.7088146210E-001 -2.4644765258E-001  +9.7152686119E-001 -2.4471420050E-001  +1.5172245912E-003 -7.6026851311E-003 
14400000000.000 -3.6550881341E-003 -7.9811783507E-003  +9.6966600418E-001 -2.4977721274E-001  +9.7030544281E-001 -2.4780099094E-001  -1.2947855284E-003 -9.0569462627E-003 
14600000000.000 -2.5291426937E-005 -7.0359711535E-003  +9.6863245964E-001 -2.5379809737E-001  +9.6983957291E-001 -2.5121963024E-001  -1.4434398327E-004 -8.7910564616E-003 
14800000000.000 -5.6758668507E-004 -5.9980163351E-003  +9.6851652861E-001 -2.5599950552E-001  +9.6808338165E-001 -2.5525346398E-001  +3.3913779589E-006 -9.1973012313E-003 
15000000000.000 -7.2983599966E-004 -5.5754133500E-003  +9.6802675724E-001 -2.5999480486E-001  +9.6724969149E-001 -2.5716578960E-001  +1.0176103096E-003 -9.5149483532E-003 
15200000000.000 -3.8521667011E-003 -6.7827743478E-003  +9.6647512913E-001 -2.6298576593E-001  +9.6674138308E-001 -2.6224860549E-001  -7.9087819904E-004 -8.6920876056E-003 
15400000000.000 -8.0210331362E-004 -8.2387067378E-003  +9.6643310785E-001 -2.6618888974E-001  +9.6633094549E-001 -2.6533457637E-001  +2.1905878384E-004 -9.2668132856E-003 
15600000000.000 -3.0680332566E-004 -5.2735428326E-003  +9.6559059620E-001 -2.7055630088E-001  +9.6455603838E-001 -2.6799467206E-001  +1.3403606135E-003 -9.6955010667E-003 
15800000000.000 -2.4222608190E-003 -6.7974315025E-003  +9.6348607540E-001 -2.7457866073E-001  +9.6367990971E-001 -2.7180984616E-001  +8.9852685051E-005 -8.3624636754E-003 
16000000000.000 -3.2762086485E-003 -7.5799087062E-003  +9.6212995052E-001 -2.7764672041E-001  +9.6270769835E-001 -2.7569651604E-001  -1.9547543488E-003 -8.7590618059E-003 
16200000000.000 -1.8891316140E-003 -9.8019614816E-003  +9.6132975817E-001 -2.8069013357E-001  +9.6266120672E-001 -2.7777579427E-001  -1.1561126303E-004 -1.1025532149E-002 
16400000000.000 -9.4252487179E-004 -6.8676448427E-003  +9.5962917805E-001 -2.8408119082E-001  +9.6221637726E-001 -2.8127464652E-001  +7.3827290908E-004 -1.1000305414E-002 
16600000000.000 -3.6791826133E-003 -7.4921185151E-003  +9.5936518908E-001 -2.8843232989E-001  +9.6070849895E-001 -2.8454598784E-001  -4.1730288649E-004 -9.6883801743E-003 
16800000000.000 -2.1988730878E-003 -8.8648581877E-003  +9.5935630798E-001 -2.9056897759E-001  +9.5996284485E-001 -2.8863891959E-001  -1.0131193558E-003 -1.0481479578E-002 
17000000000.000 -1.3502291404E-003 -7.7783041634E-003  +9.5871484280E-001 -2.9228830338E-001  +9.5819485188E-001 -2.9267308116E-001  +2.3314699065E-003 -1.2562041171E-002 
17200000000.000 -2.3260405287E-003 -8.5104685277E-003  +9.5670139790E-001 -2.9715791345E-001  +9.5778632164E-001 -2.9583153129E-001  +1.3970206492E-003 -9.0351663530E-003 
17400000000.000 -3.1302566640E-003 -8.4220031276E-003  +9.5665401220E-001 -3.0099534988E-001  +9.5762008429E-001 -2.9831323028E-001  -2.2860326862E-004 -7.3439199477E-003 
17600000000.000 -4.3717562221E-004 -1.0538045317E-002  +9.5546841621E-001 -3.0382990837E-001  +9.5560461283E-001 -3.0201783776E-001  +1.6095970932E-004 -8.7778409943E-003 
17800000000.000 +6.3962582499E-004 -7.3788217269E-003  +9.5544326305E-001 -3.0685892701E-001  +9.5475286245E-001 -3.0600216985E-001  -4.0827816701E-004 -1.0897744447E-002 
18000000000.000 -4.7738864087E-003 -9.5495097339E-003  +9.5271384716E-001 -3.1094297767E-001  +9.5467108488E-001 -3.1089791656E-001  -3.3447404858E-003 -9.8156258464E-003 
18200000000.000 -5.4152589291E-004 -1.0196345858E-002  +9.5345634222E-001 -3.1383660436E-001  +9.5429420471E-001 -3.1238275766E-001  -4.4239410199E-003 -9.7436327487E-003 
18400000000.000 +5.4172379896E-004 -6.0032764450E-003  +9.5279854536E-001 -3.1811133027E-001  +9.5301836729E-001 -3.1615677476E-001  +8.8722503278E-004 -1.2260309421E-002 
18600000000.000 -2.8051179834E-003 -8.0293156207E-003  +9.5086139441E-001 -3.2086923718E-001  +9.5184081793E-001 -3.1889790297E-001  -2.6833871379E-003 -1.1662993580E-002 
18800000000.000 -6.1542820185E-003 -9.6738534048E-003  +9.4962960482E-001 -3.2555598021E-001  +9.5042550564E-001 -3.2366198301E-001  -4.2728353292E-003 -1.1968197301E-002 
19000000000.000 -1.1642968748E-003 -1.1880734004E-002  +9.4768846035E-001 -3.2996752858E-001  +9.4967222214E-001 -3.2737466693E-001  -7.5052451575E-004 -1.2957698666E-002 
19200000000.000 -5.4485839792E-004 -5.3327744827E-003  +9.4850093126E-001 -3.3087930083E-001  +9.5280361176E-001 -3.3190560341E-001  +2.7336569037E-003 -1.3790485449E-002 
19400000000.000 -9.4019602984E-003 -1.0497353040E-002  +9.4816660881E-001 -3.3336526155E-001  +9.5287191868E-001 -3.3425948024E-001  -5.7248100638E-003 -1.0163704865E-002 
19600000000.000 -3.5961882677E-003 -1.2295628898E-002  +9.4487828016E-001 -3.3766278625E-001  +9.4975256920E-001 -3.3891382813E-001  -4.1424999945E-003 -1.4061541297E-002 
19800000000.000 -1.2270135339E-003 -1.0399935767E-002  +9.4337111712E-001 -3.4174972773E-001  +9.4854861498E-001 -3.4206283092E-001  +1.0036331369E-003 -1.3730307110E-002 
20000000000.000 -2.0517155062E-003 -1.0739478283E-002  +9.4135701656E-001 -3.4511625767E-001  +9.4701421261E-001 -3.4497493505E-001  -3.4075917210E-004 -1.4505926520E-002 
20200000000.000 -6.1195390299E-003 -1.1195387691E-002  +9.4098770618E-001 -3.4743967652E-001  +9.4522023201E-001 -3.4851950407E-001  -2.2482769564E-003 -1.1217080057E-002 
20400000000.000 -1.7837133491E-003 -1.1550755240E-002  +9.4041991234E-001 -3.5181301832E-001  +9.4440776110E-001 -3.5191315413E-001  -4.6738230594E-005 -1.3391716406E-002 
20600000000.000 -1.9177092472E-003 -1.0222231969E-002  +9.3780511618E-001 -3.5701507330E-001  +9.4286596775E-001 -3.5614347458E-001  +1.6846935614E-004 -1.4199490659E-002 
20800000000.000 -5.2579841577E-003 -1.2373786420E-002  +9.3703776598E-001 -3.6023536325E-001  +9.4203233719E-001 -3.5925644636E-001  -2.3042475805E-003 -1.0919923894E-002 
21000000000.000 -7.2547502350E-004 -9.5029659569E-003  +9.3650913239E-001 -3.6155220866E-001  +9.4037216902E-001 -3.6226516962E-001  +1.0350758675E-003 -1.0313347913E-002 
21200000000.000 -3.3558269497E-003 -9.4413198531E-003  +9.3505054712E-001 -3.6533522606E-001  +9.3977618217E-001 -3.6572223902E-001  -1.4078324893E-003 -1.0185745545E-002 
21400000000.000 -6.4273267053E-003 -1.3493769802E-002  +9.3366539478E-001 -3.6774075031E-001  +9.3850421906E-001 -3.6757025123E-001  -7.1296556853E-003 -1.6181569546E-002 
21600000000.000 -5.7666799985E-003 -1.2334790081E-002  +9.3294024467E-001 -3.7312015891E-001  +9.3744415045E-001 -3.7269464135E-001  -3.7759880070E-003 -1.3669380918E-002 
21800000000.000 -3.7296349183E-003 -1.0738149285E-002  +9.3165916204E-001 -3.7624374032E-001  +9.3177598715E-001 -3.7522423267E-001  -3.2977163792E-003 -1.4215197414E-002 
22000000000.000 -5.7734446600E-003 -9.3592125922E-003  +9.2988538742E-001 -3.7810009718E-001  +9.3044227362E-001 -3.7642326951E-001  -1.1789905839E-003 -1.5420335345E-002 
22200000000.000 -1.0375632904E-002 -1.8319236115E-002  +9.2999321222E-001 -3.8011506200E-001  +9.2992651463E-001 -3.7905687094E-001  -7.3534194380E-003 -1.7591172829E-002 
22400000000.000 -4.3905852363E-003 -1.5841195360E-002  +9.2893093824E-001 -3.8539585471E-001  +9.2965954542E-001 -3.8206487894E-001  -7.2401383659E-004 -1.8589165062E-002 
22600000000.000 -4.1703926399E-003 -1.0381605476E-002  +9.2546457052E-001 -3.9064285159E-001  +9.2640382051E-001 -3.8777011633E-001  -3.2973988709E-005 -1.2461458333E-002 
22800000000.000 -6.3515296206E-003 -1.4419588260E-002  +9.2279529572E-001 -3.9316862822E-001  +9.2359560728E-001 -3.9148670435E-001  -3.3643438946E-003 -1.6023658216E-002 
