!  2-Port S-parameters saved by WinCal
! VAR MeasName=S-Parameters (CALIBRATED_DATA) read from VNA (MS4647B)
! VAR MeasDate=16-Sep-21 11:14:59
! VAR NAME=40ps_5250u
! VAR FILENAME=40ps_5250u.S2P
! VAR DATE=16-Sep-21 11:14:59
! VAR PHYS_PORTS=1,2
! VAR ObjTypeName=DATASET
! VAR IndexType=Frequency
!
# Hz S RI R 50
200000000.000 +9.3012126163E-003 +3.1497105956E-003  +9.8932218552E-001 -5.1096029580E-002  +9.8965668678E-001 -5.1667843014E-002  +9.4137387350E-003 +3.3447069582E-003 
400000000.000 +1.1255796999E-002 +5.2397428080E-003  +9.8393911123E-001 -1.0332123190E-001  +9.8402130604E-001 -1.0185807943E-001  +1.1593810283E-002 +5.0120609812E-003 
600000000.000 +1.2866035104E-002 +6.0712359846E-003  +9.7648525238E-001 -1.5083412826E-001  +9.7559207678E-001 -1.5255667269E-001  +1.3256045990E-002 +5.4006553255E-003 
800000000.000 +1.4247360639E-002 +6.7140911706E-003  +9.6668064594E-001 -1.9922453165E-001  +9.6652281284E-001 -1.9990393519E-001  +1.4565899968E-002 +6.3251163810E-003 
1000000000.000 +1.5164310113E-002 +7.7793309465E-003  +9.5519465208E-001 -2.4793764949E-001  +9.5472824574E-001 -2.4956956506E-001  +1.5516923741E-002 +5.6594028138E-003 
1200000000.000 +1.6125852242E-002 +8.7318280712E-003  +9.3999165297E-001 -2.9494711757E-001  +9.3981045485E-001 -2.9634684324E-001  +1.6925577074E-002 +5.2341530100E-003 
1400000000.000 +1.6143802553E-002 +8.2455193624E-003  +9.2277336121E-001 -3.4100621939E-001  +9.2301142216E-001 -3.4239414334E-001  +1.7561784014E-002 +7.1516926400E-003 
1600000000.000 +1.8368374556E-002 +7.9600932077E-003  +9.0434348583E-001 -3.8603207469E-001  +9.0308672190E-001 -3.8734680414E-001  +1.7853666097E-002 +5.7288673706E-003 
1800000000.000 +2.0784206688E-002 +8.3585837856E-003  +8.8397741318E-001 -4.3022447824E-001  +8.8308417797E-001 -4.3202856183E-001  +2.0613988861E-002 +6.3931993209E-003 
2000000000.000 +2.1873617545E-002 +8.0632017925E-003  +8.6227828264E-001 -4.7261407971E-001  +8.6114788055E-001 -4.7495180368E-001  +2.0314788446E-002 +6.1680697836E-003 
2200000000.000 +2.3499473929E-002 +6.6618132405E-003  +8.3711344004E-001 -5.1547896862E-001  +8.3559250832E-001 -5.1733636856E-001  +2.3568663746E-002 +3.6888902541E-003 
2400000000.000 +2.5603584945E-002 +6.4237308688E-003  +8.0880743265E-001 -5.5670213699E-001  +8.0858957767E-001 -5.5747568607E-001  +2.3722389713E-002 +3.5522712860E-003 
2600000000.000 +2.5582926348E-002 +5.7232137769E-003  +7.7876818180E-001 -5.9630328417E-001  +7.7900761366E-001 -5.9635621309E-001  +2.4473212659E-002 +2.2481393535E-003 
2800000000.000 +2.6628831401E-002 +4.6673119068E-003  +7.4777823687E-001 -6.3453167677E-001  +7.4730360508E-001 -6.3510841131E-001  +2.5857798755E-002 +1.4532440109E-003 
3000000000.000 +2.7656804770E-002 +3.7924528588E-003  +7.1421444416E-001 -6.7049860954E-001  +7.1476268768E-001 -6.6942703724E-001  +2.6290290058E-002 +2.4753465550E-004 
3200000000.000 +2.8187483549E-002 +2.7563262265E-003  +6.7946237326E-001 -7.0468783379E-001  +6.8017560244E-001 -7.0639848709E-001  +2.6146773249E-002 -2.1100596059E-003 
3400000000.000 +2.9144374654E-002 +2.0206277259E-003  +6.4387649298E-001 -7.3746663332E-001  +6.4337450266E-001 -7.3788785934E-001  +2.6630051434E-002 -2.7301530354E-003 
3600000000.000 +2.9412269592E-002 +3.7749527837E-004  +6.0541003942E-001 -7.6846373081E-001  +6.0553163290E-001 -7.6833742857E-001  +2.6559755206E-002 -3.9853528142E-003 
3800000000.000 +3.0414210632E-002 -6.3080166001E-004  +5.6629830599E-001 -7.9738759995E-001  +5.6677919626E-001 -7.9733723402E-001  +2.6968130842E-002 -5.3354711272E-003 
4000000000.000 +3.0032226816E-002 -1.6412117984E-003  +5.2598381042E-001 -8.2344651222E-001  +5.2580034733E-001 -8.2359158993E-001  +2.7322275564E-002 -6.9218287244E-003 
4200000000.000 +3.0844742432E-002 -2.7335069608E-003  +4.8395845294E-001 -8.4845781326E-001  +4.8352742195E-001 -8.4868782759E-001  +2.7830917388E-002 -7.3443809524E-003 
4400000000.000 +3.0121522024E-002 -4.5690233819E-003  +4.4049179554E-001 -8.7038958073E-001  +4.4129592180E-001 -8.7080848217E-001  +2.7082242072E-002 -8.9912423864E-003 
4600000000.000 +3.0419064686E-002 -5.6510162540E-003  +3.9670923352E-001 -8.9178478718E-001  +3.9753097296E-001 -8.9132952690E-001  +2.7220789343E-002 -1.0451548733E-002 
4800000000.000 +2.9760275036E-002 -6.6969911568E-003  +3.5213947296E-001 -9.0983051062E-001  +3.5295721889E-001 -9.0992176533E-001  +2.6485895738E-002 -1.1707490310E-002 
5000000000.000 +3.0473042279E-002 -8.5496464744E-003  +3.0594235659E-001 -9.2559462786E-001  +3.0693700910E-001 -9.2461830378E-001  +2.5556152686E-002 -1.3147525489E-002 
5200000000.000 +2.9352292418E-002 -9.4665409997E-003  +2.5907513499E-001 -9.3926298618E-001  +2.6015651226E-001 -9.3887335062E-001  +2.4196678773E-002 -1.3711903244E-002 
5400000000.000 +2.9132191092E-002 -1.0750307702E-002  +2.1362963319E-001 -9.5005816221E-001  +2.1325176954E-001 -9.5053404570E-001  +2.4483207613E-002 -1.5605673194E-002 
5600000000.000 +2.8795626014E-002 -1.1877499521E-002  +1.6550132632E-001 -9.5926511288E-001  +1.6587671638E-001 -9.5892673731E-001  +2.3624192923E-002 -1.6712263227E-002 
5800000000.000 +2.7616010979E-002 -1.2768975459E-002  +1.1855251342E-001 -9.6504551172E-001  +1.1873089522E-001 -9.6460604668E-001  +2.2474642843E-002 -1.8065223470E-002 
6000000000.000 +2.6583038270E-002 -1.4457444660E-002  +6.9590494037E-002 -9.6970242262E-001  +6.9777421653E-002 -9.6944874525E-001  +2.0711094141E-002 -1.7818164080E-002 
6200000000.000 +2.5660363957E-002 -1.5035280958E-002  +2.1667618304E-002 -9.7188335657E-001  +2.2744078189E-002 -9.7190684080E-001  +2.0285928622E-002 -1.9179932773E-002 
6400000000.000 +2.4870648980E-002 -1.6350071877E-002  -2.5731727481E-002 -9.7062194347E-001  -2.5590388104E-002 -9.7066456079E-001  +1.8706297502E-002 -1.9711459056E-002 
6600000000.000 +2.3145137355E-002 -1.6694791615E-002  -7.4070595205E-002 -9.6875554323E-001  -7.3629386723E-002 -9.6836084127E-001  +1.6191035509E-002 -2.0819298923E-002 
6800000000.000 +2.2251360118E-002 -1.7719747499E-002  -1.2233162671E-001 -9.6346765757E-001  -1.2114264071E-001 -9.6314090490E-001  +1.5469297767E-002 -2.2020285949E-002 
7000000000.000 +2.1105132997E-002 -1.8260922283E-002  -1.6975788772E-001 -9.5532959700E-001  -1.6870820522E-001 -9.5594763756E-001  +1.4110674150E-002 -2.1221790463E-002 
7200000000.000 +1.9802808762E-002 -1.8862556666E-002  -2.1671190858E-001 -9.4551730156E-001  -2.1527649462E-001 -9.4591379166E-001  +1.3246513903E-002 -2.2279471159E-002 
7400000000.000 +1.8474558368E-002 -1.8945198506E-002  -2.6332062483E-001 -9.3299269676E-001  -2.6236826181E-001 -9.3340760469E-001  +1.1968870647E-002 -2.0863955840E-002 
7600000000.000 +1.6741646454E-002 -1.9260440022E-002  -3.0941724777E-001 -9.1884154081E-001  -3.0836364627E-001 -9.1938447952E-001  +1.0573400185E-002 -2.2473350167E-002 
7800000000.000 +1.6420328990E-002 -1.9656753168E-002  -3.5430023074E-001 -9.0216231346E-001  -3.5422831774E-001 -9.0279656649E-001  +9.8375352100E-003 -2.1131973714E-002 
8000000000.000 +1.4673571102E-002 -1.9380718470E-002  -3.9845243096E-001 -8.8248383999E-001  -3.9769929647E-001 -8.8295447826E-001  +7.2076837532E-003 -2.0297575742E-002 
8200000000.000 +1.3903661631E-002 -1.9075294957E-002  -4.4214528799E-001 -8.6162132025E-001  -4.4062393904E-001 -8.6212658882E-001  +6.2154759653E-003 -2.0158754662E-002 
8400000000.000 +1.1791130528E-002 -1.8705580384E-002  -4.8337161541E-001 -8.3830493689E-001  -4.8320752382E-001 -8.3951777220E-001  +4.2045451701E-003 -1.9881788641E-002 
8600000000.000 +1.2075622566E-002 -1.8871534616E-002  -5.2404266596E-001 -8.1295710802E-001  -5.2316308022E-001 -8.1388008595E-001  +4.5664720237E-003 -2.1177034825E-002 
8800000000.000 +9.5133688301E-003 -1.7881542444E-002  -5.6381839514E-001 -7.8546589613E-001  -5.6259751320E-001 -7.8656059504E-001  +1.9717726391E-003 -1.9387219101E-002 
9000000000.000 +8.3293067291E-003 -1.7933495343E-002  -6.0126000643E-001 -7.5693768263E-001  -6.0048401356E-001 -7.5734806061E-001  +2.7552156826E-004 -2.0452916622E-002 
9200000000.000 +6.4808386378E-003 -1.6931515187E-002  -6.3769865036E-001 -7.2611302137E-001  -6.3694709539E-001 -7.2671836615E-001  +8.2684267545E-004 -1.8025707453E-002 
9400000000.000 +6.3189300708E-003 -1.7008922994E-002  -6.7251044512E-001 -6.9376182556E-001  -6.7239189148E-001 -6.9413489103E-001  +2.1702839877E-004 -1.8120376393E-002 
9600000000.000 +5.9317792766E-003 -1.5862435102E-002  -7.0550602674E-001 -6.5901184082E-001  -7.0551711321E-001 -6.5965783596E-001  -5.3666828899E-004 -1.6330188140E-002 
9800000000.000 +3.8567874581E-003 -1.5031598508E-002  -7.3648959398E-001 -6.2244498730E-001  -7.3660027981E-001 -6.2288379669E-001  -2.4861530401E-003 -1.4858014882E-002 
10000000000.000 +3.7865482736E-003 -1.4195938595E-002  -7.6708042622E-001 -5.8482342958E-001  -7.6649188995E-001 -5.8557474613E-001  -2.5928358082E-003 -1.4182465151E-002 
10200000000.000 +2.7062685695E-003 -1.2854897417E-002  -7.9405850172E-001 -5.4630160332E-001  -7.9387122393E-001 -5.4706847668E-001  -2.5896879379E-003 -1.2865135446E-002 
10400000000.000 +2.5885351934E-003 -1.2371066026E-002  -8.2006889582E-001 -5.0561004877E-001  -8.1959873438E-001 -5.0737577677E-001  -3.6176952999E-003 -1.2481562793E-002 
10600000000.000 +8.1805849914E-004 -1.0506037623E-002  -8.4346508980E-001 -4.6475529671E-001  -8.4367412329E-001 -4.6533086896E-001  -4.2588016950E-003 -1.0033730417E-002 
10800000000.000 +9.1941934079E-004 -1.0373257101E-002  -8.6516112089E-001 -4.2190313339E-001  -8.6540108919E-001 -4.2293795943E-001  -4.2622662149E-003 -1.0546443053E-002 
11000000000.000 +7.6619622996E-004 -8.8704889640E-003  -8.8507574797E-001 -3.7856480479E-001  -8.8443553448E-001 -3.7993448973E-001  -3.7304167636E-003 -8.2113081589E-003 
11200000000.000 +3.7040459574E-004 -8.1778392196E-003  -9.0251344442E-001 -3.3372998238E-001  -9.0151858330E-001 -3.3516624570E-001  -4.3741767295E-003 -8.2092089579E-003 
11400000000.000 +1.5737491776E-004 -6.4519681036E-003  -9.1768932343E-001 -2.8906816244E-001  -9.1706949472E-001 -2.9048022628E-001  -3.9348006248E-003 -6.1782361008E-003 
11600000000.000 -2.8446750366E-004 -5.9206173755E-003  -9.3015700579E-001 -2.4373143911E-001  -9.2954033613E-001 -2.4472124875E-001  -4.1172453202E-003 -5.9067751281E-003 
11800000000.000 +8.8524771854E-004 -4.5443610288E-003  -9.4034361839E-001 -1.9739159942E-001  -9.4063782692E-001 -1.9826909900E-001  -2.5685422588E-003 -4.2452551425E-003 
12000000000.000 -2.2058803006E-004 -2.8184147086E-003  -9.4837468863E-001 -1.4994448423E-001  -9.4837522507E-001 -1.5141157806E-001  -4.0858299471E-003 -2.4165855721E-003 
12200000000.000 -9.0593195637E-005 -3.6013573408E-003  -9.5611244440E-001 -1.0275182128E-001  -9.5468771458E-001 -1.0470104218E-001  -2.9936665669E-003 -3.7818143610E-003 
12400000000.000 +4.3994124280E-004 -1.7909205053E-003  -9.5772397518E-001 -5.6302208453E-002  -9.5834517479E-001 -5.6253504008E-002  -1.8697084161E-003 -8.7067449931E-004 
12600000000.000 +1.1144491145E-003 -6.2896421878E-004  -9.5996314287E-001 -9.7043830901E-003  -9.5974951982E-001 -1.0178392753E-002  -2.1184314974E-003 -6.0316619056E-005 
12800000000.000 +1.7795370659E-003 -1.0981165542E-004  -9.5819491148E-001 +3.8809500635E-002  -9.5859378576E-001 +3.7740193307E-002  -2.0423382521E-003 +7.8200420830E-005 
13000000000.000 +1.7767283134E-003 -1.0574938497E-003  -9.5573651791E-001 +8.6298145354E-002  -9.5505011082E-001 +8.4731109440E-002  -1.6461911146E-003 -1.0023986688E-003 
13200000000.000 +5.1142331213E-003 +1.3371173991E-003  -9.5017141104E-001 +1.3407880068E-001  -9.5059388876E-001 +1.3209359348E-001  +1.4390607830E-003 +4.2851625039E-006 
13400000000.000 +4.5433552004E-003 +3.6384551786E-003  -9.4123989344E-001 +1.7981052399E-001  -9.4223904610E-001 +1.7845971882E-001  +1.0354163824E-003 +1.7240828602E-003 
13600000000.000 +3.9773560129E-003 +2.5171644520E-003  -9.3152272701E-001 +2.2558204830E-001  -9.3197792768E-001 +2.2424034774E-001  +1.4096526429E-003 -9.1840355890E-004 
13800000000.000 +4.2226184160E-003 +3.7723213900E-003  -9.1903996468E-001 +2.7116519213E-001  -9.1925680637E-001 +2.7051448822E-001  +2.7585236821E-003 +8.3907862427E-004 
14000000000.000 +5.9768292122E-003 +4.1106548160E-003  -9.0398240089E-001 +3.1596517563E-001  -9.0457773209E-001 +3.1562083960E-001  +4.3766908348E-003 +7.0152163971E-004 
14200000000.000 +6.1936527491E-003 +6.2725124881E-003  -8.8678336143E-001 +3.6106175184E-001  -8.8770139217E-001 +3.6023959517E-001  +6.3335220329E-003 +2.1744186524E-003 
14400000000.000 +4.6729906462E-003 +3.5414376762E-003  -8.6837852001E-001 +4.0504026413E-001  -8.6860579252E-001 +4.0300306678E-001  +4.6027824283E-003 +2.0305819344E-003 
14600000000.000 +8.3130951971E-003 +3.7998161279E-003  -8.4635835886E-001 +4.4611179829E-001  -8.4733611345E-001 +4.4498857856E-001  +6.0540400445E-003 +1.4291186817E-003 
14800000000.000 +9.3387681991E-003 +4.6766512096E-003  -8.2330924273E-001 +4.8835760355E-001  -8.2403731346E-001 +4.8578229547E-001  +6.4530759118E-003 +2.7886446333E-004 
15000000000.000 +9.1876648366E-003 +4.8959767446E-003  -7.9772949219E-001 +5.2820569277E-001  -7.9890376329E-001 +5.2514249086E-001  +8.6381295696E-003 +2.9973080382E-004 
15200000000.000 +8.6286114529E-003 +4.5914794318E-003  -7.7079188824E-001 +5.6649881601E-001  -7.7120578289E-001 +5.6547462940E-001  +8.3802482113E-003 +7.0688931737E-004 
15400000000.000 +1.0595620610E-002 +3.5754956771E-003  -7.4140483141E-001 +6.0336339474E-001  -7.4268829823E-001 +6.0246640444E-001  +1.0467238724E-002 -1.1807462579E-004 
15600000000.000 +1.1170639656E-002 +4.5133410022E-003  -7.1042197943E-001 +6.3947224617E-001  -7.1134096384E-001 +6.3813608885E-001  +9.9991299212E-003 -1.5414779773E-003 
15800000000.000 +1.0220525786E-002 +3.9056933019E-003  -6.7789059877E-001 +6.7314690351E-001  -6.7805117369E-001 +6.7240697145E-001  +1.0874361731E-002 +4.6974327415E-004 
16000000000.000 +1.0619781911E-002 +3.5156474914E-003  -6.4299601316E-001 +7.0550715923E-001  -6.4462256432E-001 +7.0515567064E-001  +9.4030341133E-003 +5.9918191982E-004 
16200000000.000 +1.1747911572E-002 +1.4486849541E-003  -6.0741889477E-001 +7.3631620407E-001  -6.0981631279E-001 +7.3568964005E-001  +1.1021951213E-002 -2.3751540575E-003 
16400000000.000 +1.3229990378E-002 +2.8245998546E-003  -5.7032847404E-001 +7.6563113928E-001  -5.7245057821E-001 +7.6524376869E-001  +9.8527241498E-003 -2.2478206083E-003 
16600000000.000 +1.2339603156E-002 +1.8517790595E-003  -5.3055846691E-001 +7.9266643524E-001  -5.3304958344E-001 +7.9182392359E-001  +1.1369554326E-002 -3.6312208977E-003 
16800000000.000 +1.3451279141E-002 +6.0541206039E-004  -4.9048838019E-001 +8.1775212288E-001  -4.9322491884E-001 +8.1777358055E-001  +1.0700442828E-002 -3.8248291239E-003 
17000000000.000 +1.3871457428E-002 +5.6843709899E-004  -4.5104539394E-001 +8.3976876736E-001  -4.5097109675E-001 +8.4004193544E-001  +1.1969211511E-002 -7.3659312911E-003 
17200000000.000 +1.3648875058E-002 +3.3872624044E-004  -4.0777760744E-001 +8.6190521717E-001  -4.0986046195E-001 +8.6219859123E-001  +1.7055382952E-002 -3.1794724055E-003 
17400000000.000 +1.3985646889E-002 -3.5142761772E-004  -3.6568453908E-001 +8.8047897816E-001  -3.6709254980E-001 +8.8008159399E-001  +1.4728488401E-002 -3.0387307052E-003 
17600000000.000 +1.4085646719E-002 -3.2301624306E-003  -3.2131624222E-001 +8.9799630642E-001  -3.2335260510E-001 +8.9780974388E-001  +1.2652474456E-002 -5.0853500143E-003 
17800000000.000 +1.4797175303E-002 -1.1726561934E-003  -2.7657637000E-001 +9.1171658039E-001  -2.7750042081E-001 +9.1100537777E-001  +8.5777128115E-003 -4.2566596530E-003 
18000000000.000 +1.2613485567E-002 -1.5470681246E-003  -2.2915472090E-001 +9.2479944229E-001  -2.3159499466E-001 +9.2502564192E-001  +7.9435920343E-003 -3.7992713042E-003 
18200000000.000 +1.6142545268E-002 -3.3428026363E-003  -1.8498080969E-001 +9.3401008844E-001  -1.8756397069E-001 +9.3383890390E-001  +6.0127270408E-003 -5.3163156845E-003 
18400000000.000 +1.4371792786E-002 -1.4668052318E-003  -1.3742814958E-001 +9.4407117367E-001  -1.3921944797E-001 +9.4314968586E-001  +2.4305591360E-003 -7.1804127656E-003 
18600000000.000 +1.1341503821E-002 -2.4522594176E-003  -9.1879114509E-002 +9.4797796011E-001  -9.3601204455E-002 +9.4763439894E-001  +4.9120304175E-003 -4.3115816079E-003 
18800000000.000 +1.2438816950E-002 -4.2077810504E-003  -4.4712144881E-002 +9.5028978586E-001  -4.5332774520E-002 +9.5070785284E-001  +6.1350287870E-003 -8.5315341130E-003 
19000000000.000 +1.3807346113E-002 -6.1020860448E-003  +3.3307047561E-003 +9.5095014572E-001  +1.0602064140E-004 +9.5171105862E-001  +8.8886748999E-003 -1.1019746773E-002 
19200000000.000 +1.0387796909E-002 -2.0183091983E-003  +5.0555817783E-002 +9.5275986195E-001  +4.9328807741E-002 +9.5412814617E-001  +2.0528195892E-003 -4.8266844824E-003 
19400000000.000 +1.1170309968E-002 -4.0183775127E-003  +9.6903584898E-002 +9.4909280539E-001  +9.6268638968E-002 +9.5062732697E-001  +8.1883464009E-003 -6.5837646835E-003 
19600000000.000 +1.2931987643E-002 -7.5904196128E-003  +1.4451195300E-001 +9.4139343500E-001  +1.4347715676E-001 +9.4339454174E-001  +3.7388904020E-003 -9.6203135327E-003 
19800000000.000 +1.0244089179E-002 -6.3844905235E-003  +1.9004385173E-001 +9.3339574337E-001  +1.8903388083E-001 +9.3535441160E-001  +5.7549048215E-003 -1.1302206665E-002 
20000000000.000 +1.0608735494E-002 -5.0319717266E-003  +2.3622079194E-001 +9.2111158371E-001  +2.3479564488E-001 +9.2406767607E-001  +6.4191538841E-003 -8.0887516961E-003 
20200000000.000 +1.1196743697E-002 -6.0821669176E-003  +2.8138917685E-001 +9.0819239616E-001  +2.8036603332E-001 +9.0952277184E-001  +7.4903164059E-003 -1.0176826268E-002 
20400000000.000 +1.0551665910E-002 -9.1074667871E-003  +3.2580351830E-001 +8.9377558231E-001  +3.2428804040E-001 +8.9561361074E-001  +5.9665031731E-003 -1.1375962757E-002 
20600000000.000 +9.1063473374E-003 -4.0922439657E-003  +3.7117385864E-001 +8.7474101782E-001  +3.6885419488E-001 +8.7723535299E-001  +5.5849794298E-003 -7.6562315226E-003 
20800000000.000 +1.0285976343E-002 -7.5078452937E-003  +4.1341587901E-001 +8.5649436712E-001  +4.1119331121E-001 +8.5863035917E-001  +8.7835444137E-003 -1.1326828040E-002 
21000000000.000 +8.8007999584E-003 -7.0402044803E-003  +4.5282244682E-001 +8.3487159014E-001  +4.5255896449E-001 +8.3667391539E-001  +5.2658990026E-003 -9.4273258001E-003 
21200000000.000 +6.0042045079E-003 -2.7267187834E-003  +4.9483656883E-001 +8.1092965603E-001  +4.9359375238E-001 +8.1409704685E-001  +3.5975375213E-003 -5.0104167312E-003 
21400000000.000 +8.5094533861E-003 -5.6359972805E-003  +5.3276991844E-001 +7.8577953577E-001  +5.3198468685E-001 +7.8798502684E-001  +3.4563250374E-003 -8.4272446111E-003 
21600000000.000 +7.9701747745E-003 -8.5540534928E-003  +5.7169878483E-001 +7.5819146633E-001  +5.7120138407E-001 +7.6075744629E-001  +2.4948527571E-003 -1.2275183573E-002 
21800000000.000 +6.3843494281E-003 -5.5810911581E-003  +6.0859656334E-001 +7.2900116444E-001  +6.0561740398E-001 +7.2770297527E-001  +1.5644738451E-003 -7.0371404290E-003 
22000000000.000 +4.4754217379E-003 -3.3469498158E-003  +6.4285272360E-001 +6.9727975130E-001  +6.3895225525E-001 +6.9732201099E-001  +2.1037319675E-003 -4.7385613434E-003 
22200000000.000 +6.4918068238E-003 -7.2427499108E-003  +6.7588442564E-001 +6.6640877724E-001  +6.7248988152E-001 +6.6543561220E-001  +4.6317595989E-003 -1.0231951252E-002 
22400000000.000 +7.8661674634E-003 -8.3893192932E-003  +7.0643138885E-001 +6.3029474020E-001  +7.0442897081E-001 +6.3153344393E-001  +5.2224267274E-003 -8.7209390476E-003 
22600000000.000 +4.5607015491E-003 -4.5860814862E-003  +7.3774820566E-001 +5.9251916409E-001  +7.3490893841E-001 +5.9583002329E-001  +3.2012516167E-003 -2.7472351212E-003 
22800000000.000 +5.2658054046E-003 -5.4643028416E-003  +7.6380211115E-001 +5.5461651087E-001  +7.6342844963E-001 +5.5581402779E-001  +3.1861930620E-003 -4.9656769261E-003 
