!  2-Port S-parameters saved by WinCal
! VAR MeasName=S-Parameters (CALIBRATED_DATA) read from VNA (MS4647B)
! VAR MeasDate=16-Sep-21 12:07:00
! VAR NAME=short
! VAR FILENAME=short.S2P
! VAR DATE=16-Sep-21 12:07:00
! VAR PHYS_PORTS=1,2
! VAR ObjTypeName=DATASET
! VAR IndexType=Frequency
!
# Hz S RI R 50
200000000.000 -1.0001045465E+000 +2.0777238533E-003  +6.4693620061E-007 +8.6517378804E-005  +2.0903229597E-005 +9.0722431196E-005  -1.0046298504E+000 -6.8832439138E-004 
400000000.000 -9.9777305126E-001 +4.3711517937E-003  +2.7155418138E-005 +1.6248328029E-004  +2.1955282136E-005 +1.5713852190E-004  -1.0040742159E+000 -1.6190656461E-003 
600000000.000 -9.9729335308E-001 +4.1327076033E-003  +5.0273698434E-005 +2.3823183437E-004  -4.1756929932E-006 +2.7868690086E-004  -1.0049408674E+000 -4.9149669940E-004 
800000000.000 -9.9701911211E-001 +5.4026050493E-003  +5.2741412219E-005 +3.0920567224E-004  +2.1755653506E-005 +2.8706633020E-004  -1.0055607557E+000 +1.7540947301E-003 
1000000000.000 -9.9803972244E-001 +5.7641398162E-003  +4.8065878218E-005 +3.6975074909E-004  +3.1076837331E-005 +3.7448367220E-004  -1.0075840950E+000 +1.0484426748E-003 
1200000000.000 -9.9589234591E-001 +5.2883764729E-003  +4.6961358748E-005 +4.5448000310E-004  +4.6448083594E-005 +4.4399639592E-004  -1.0063464642E+000 +7.4616074562E-004 
1400000000.000 -9.9508327246E-001 +6.2453616410E-003  +5.6708722695E-005 +5.1590864314E-004  +4.7242334404E-005 +5.1605066983E-004  -1.0069668293E+000 +3.3042591531E-003 
1600000000.000 -9.9621152878E-001 +5.9403683990E-003  +4.9605801905E-005 +5.7370023569E-004  +7.0999631134E-005 +5.8124546194E-004  -1.0066734552E+000 +2.3150665220E-003 
1800000000.000 -9.9638599157E-001 +6.2969736755E-003  +5.5695094488E-005 +6.4049853245E-004  +5.2453113312E-005 +6.6294486169E-004  -1.0075039864E+000 +2.8165860567E-003 
2000000000.000 -9.9589210749E-001 +6.7003159784E-003  +6.1478654970E-005 +7.2930136230E-004  +5.5024967878E-005 +7.1979797212E-004  -1.0076800585E+000 +3.7451284006E-003 
2200000000.000 -9.9499285221E-001 +9.4831818715E-003  +7.6889278716E-005 +7.9349620501E-004  +6.5547232225E-005 +7.9285504762E-004  -1.0062439442E+000 +5.5084708147E-003 
2400000000.000 -9.9507832527E-001 +8.9478474110E-003  +6.8857050792E-005 +8.7083992548E-004  +7.6106196502E-005 +8.5267511895E-004  -1.0067286491E+000 +7.0729292929E-003 
2600000000.000 -9.9510896206E-001 +8.5383011028E-003  +7.6830554463E-005 +9.2323555145E-004  +7.2731105320E-005 +9.2634093016E-004  -1.0076318979E+000 +6.5917107277E-003 
2800000000.000 -9.9557191133E-001 +1.0864338838E-002  +7.4059113103E-005 +1.0071163997E-003  +8.1063881225E-005 +1.0033013532E-003  -1.0066069365E+000 +8.6313197389E-003 
3000000000.000 -9.9529492855E-001 +1.0466968641E-002  +8.0899648310E-005 +1.0530110449E-003  +7.7994467574E-005 +1.0700315470E-003  -1.0066453218E+000 +9.2441234738E-003 
3200000000.000 -9.9539220333E-001 +1.0910389014E-002  +7.5281284808E-005 +1.1382625671E-003  +7.6137395808E-005 +1.1471244507E-003  -1.0065816641E+000 +9.0082976967E-003 
3400000000.000 -9.9624830484E-001 +1.0547994636E-002  +7.5259638834E-005 +1.2091157259E-003  +9.4077455287E-005 +1.2060886947E-003  -1.0073581934E+000 +7.7102407813E-003 
3600000000.000 -9.9495869875E-001 +1.1597597040E-002  +5.6600343669E-005 +1.2593526626E-003  +9.3127826403E-005 +1.2775305659E-003  -1.0065859556E+000 +9.8029151559E-003 
3800000000.000 -9.9592751265E-001 +1.2079151347E-002  +6.5167652792E-005 +1.3549176510E-003  +7.7459233580E-005 +1.3457215391E-003  -1.0081626177E+000 +9.0188123286E-003 
4000000000.000 -9.9490398169E-001 +1.1938963085E-002  +8.1084173871E-005 +1.4043711126E-003  +8.2975377154E-005 +1.4079031534E-003  -1.0069141388E+000 +9.8204882815E-003 
4200000000.000 -9.9593424797E-001 +1.3045185246E-002  +9.5635172329E-005 +1.4872539323E-003  +9.6767616924E-005 +1.4797158074E-003  -1.0071254969E+000 +1.0914547369E-002 
4400000000.000 -9.9538069963E-001 +1.3021089137E-002  +7.2511655162E-005 +1.5483123716E-003  +7.3513074312E-005 +1.5554573620E-003  -1.0071066618E+000 +1.0924636386E-002 
4600000000.000 -9.9558758736E-001 +1.4396486804E-002  +1.1219301814E-004 +1.6283702571E-003  +7.7812990639E-005 +1.6142585082E-003  -1.0074480772E+000 +1.1577324942E-002 
4800000000.000 -9.9619811773E-001 +1.3754191808E-002  +8.8645458163E-005 +1.6587188002E-003  +9.7332660516E-005 +1.6815690324E-003  -1.0075485706E+000 +1.1916378513E-002 
5000000000.000 -9.9485278130E-001 +1.5526638366E-002  +8.5419822426E-005 +1.7362720100E-003  +1.0205066792E-004 +1.7527738819E-003  -1.0065199137E+000 +1.3595614582E-002 
5200000000.000 -9.9588257074E-001 +1.4555980451E-002  +8.7987209554E-005 +1.8336019712E-003  +9.9021643109E-005 +1.7940104008E-003  -1.0077818632E+000 +1.3166453689E-002 
5400000000.000 -9.9568283558E-001 +1.5877244994E-002  +8.7568929303E-005 +1.8601170741E-003  +1.1123875447E-004 +1.9059253391E-003  -1.0082428455E+000 +1.3533516787E-002 
5600000000.000 -9.9558442831E-001 +1.7436105758E-002  +1.0733438103E-004 +1.9510013517E-003  +8.0489633547E-005 +1.9654138014E-003  -1.0079276562E+000 +1.4481911436E-002 
5800000000.000 -9.9546134472E-001 +1.7406176776E-002  +9.5452749520E-005 +2.0134611987E-003  +1.0487123654E-004 +2.0104974974E-003  -1.0067316294E+000 +1.4552162960E-002 
6000000000.000 -9.9601280689E-001 +1.7961703241E-002  +8.7154803623E-005 +2.0769119728E-003  +1.0423091589E-004 +2.0731019322E-003  -1.0077306032E+000 +1.5671722591E-002 
6200000000.000 -9.9640607834E-001 +1.8929541111E-002  +6.3460021920E-005 +2.1373569034E-003  +1.1251797696E-004 +2.1483283490E-003  -1.0077996254E+000 +1.5991492197E-002 
6400000000.000 -9.9524974823E-001 +1.9988933578E-002  +1.0681979620E-004 +2.2257626988E-003  +9.3655675300E-005 +2.2100219503E-003  -1.0075069666E+000 +1.8018333241E-002 
6600000000.000 -9.9673074484E-001 +1.9825851545E-002  +1.0482402286E-004 +2.2756881081E-003  +9.3065056717E-005 +2.2746904287E-003  -1.0089070797E+000 +1.6499230638E-002 
6800000000.000 -9.9638909101E-001 +1.9830986857E-002  +9.7295553132E-005 +2.3443165701E-003  +9.1243156930E-005 +2.3363144137E-003  -1.0078194141E+000 +1.8226886168E-002 
7000000000.000 -9.9633252621E-001 +2.0576048642E-002  +9.5790317573E-005 +2.3889255244E-003  +1.0246261809E-004 +2.4063275196E-003  -1.0086174011E+000 +1.7820244655E-002 
7200000000.000 -9.9645155668E-001 +2.1560477093E-002  +8.3308208559E-005 +2.4862748105E-003  +9.4379603979E-005 +2.4903242011E-003  -1.0073800087E+000 +1.9431261346E-002 
7400000000.000 -9.9682676792E-001 +2.1524917334E-002  +9.5548777608E-005 +2.5412354153E-003  +9.5608927950E-005 +2.5327734184E-003  -1.0086412430E+000 +1.9095079973E-002 
7600000000.000 -9.9565017223E-001 +2.2252097726E-002  +7.2219198046E-005 +2.6198294945E-003  +1.0344720795E-004 +2.6381788775E-003  -1.0074360371E+000 +1.9269447774E-002 
7800000000.000 -9.9538516998E-001 +2.4370171130E-002  +1.0511508299E-004 +2.6904616971E-003  +8.8493514340E-005 +2.6733521372E-003  -1.0078916550E+000 +2.1597417071E-002 
8000000000.000 -9.9618303776E-001 +2.4536997080E-002  +8.9052999101E-005 +2.7335586492E-003  +1.0869950347E-004 +2.7487790212E-003  -1.0075798035E+000 +2.1425710991E-002 
8200000000.000 -9.9669122696E-001 +2.5822799653E-002  +8.3795028331E-005 +2.8235788923E-003  +5.9629306634E-005 +2.8003782500E-003  -1.0086054802E+000 +2.2790534422E-002 
8400000000.000 -9.9742889404E-001 +2.4669628590E-002  +8.3906874352E-005 +2.8849192895E-003  +7.5029704021E-005 +2.8803562745E-003  -1.0087325573E+000 +2.2065045312E-002 
8600000000.000 -9.9599152803E-001 +2.5934455916E-002  +6.3334868173E-005 +2.9535572976E-003  +8.7337728473E-005 +2.9372135177E-003  -1.0070852041E+000 +2.4102896452E-002 
8800000000.000 -9.9742686749E-001 +2.7039524168E-002  +9.6294061223E-005 +3.0224258080E-003  +1.1210684170E-004 +3.0172229744E-003  -1.0093647242E+000 +2.3833768442E-002 
9000000000.000 -9.9612516165E-001 +2.6420649141E-002  +1.0913291771E-004 +3.0787319411E-003  +9.6243129519E-005 +3.0797347426E-003  -1.0079767704E+000 +2.3594727740E-002 
9200000000.000 -9.9683493376E-001 +2.6154110208E-002  +9.4972230727E-005 +3.1382699963E-003  +7.4996838521E-005 +3.1372897793E-003  -1.0083271265E+000 +2.3975444958E-002 
9400000000.000 -9.9597483873E-001 +2.6041883975E-002  +1.1409350554E-004 +3.2307875808E-003  +9.2422691523E-005 +3.1936541200E-003  -1.0075311661E+000 +2.4428673089E-002 
9600000000.000 -9.9662274122E-001 +2.9350487515E-002  +8.2572289102E-005 +3.2704130281E-003  +6.7729117291E-005 +3.2375666779E-003  -1.0088012218E+000 +2.6595477015E-002 
9800000000.000 -9.9659883976E-001 +2.9528219253E-002  +1.1341854406E-004 +3.3496634569E-003  +6.4207808464E-005 +3.3373800106E-003  -1.0076289177E+000 +2.5617020205E-002 
10000000000.000 -9.9716913700E-001 +3.0335206538E-002  +1.0509073036E-004 +3.4300761763E-003  +1.0934314923E-004 +3.3805191051E-003  -1.0089235306E+000 +2.7107512578E-002 
10200000000.000 -9.9655294418E-001 +2.9875701293E-002  +6.5196240030E-005 +3.5014729947E-003  +6.0560632846E-005 +3.4571578726E-003  -1.0084571838E+000 +2.5744050741E-002 
10400000000.000 -9.9638456106E-001 +3.2621197402E-002  +6.1830738559E-005 +3.5496759228E-003  +1.1036610522E-004 +3.5084353294E-003  -1.0085394382E+000 +2.9122887179E-002 
10600000000.000 -9.9800050259E-001 +3.1575858593E-002  +9.8521340988E-005 +3.6021317355E-003  +9.1082954896E-005 +3.6206918303E-003  -1.0104032755E+000 +2.7767280117E-002 
10800000000.000 -9.9632102251E-001 +3.2027360052E-002  +8.7889369752E-005 +3.6481767893E-003  +9.2603564553E-005 +3.6521549337E-003  -1.0092331171E+000 +2.8314886615E-002 
11000000000.000 -9.9752509594E-001 +3.3044561744E-002  +5.7091565395E-005 +3.6929540802E-003  +1.0020285117E-004 +3.6862678826E-003  -1.0095850229E+000 +2.8804827482E-002 
11200000000.000 -9.9737459421E-001 +3.3867392689E-002  +1.0295488755E-004 +3.7644435652E-003  +9.8120523035E-005 +3.7755146623E-003  -1.0082147121E+000 +3.0120944604E-002 
11400000000.000 -9.9810290337E-001 +3.5154487938E-002  +9.3568800366E-005 +3.8351430558E-003  +1.0184705025E-004 +3.8388487883E-003  -1.0099788904E+000 +3.0924761668E-002 
11600000000.000 -9.9757915735E-001 +3.5120375454E-002  +7.6346485002E-005 +3.9098137058E-003  +8.4116014477E-005 +3.8945609704E-003  -1.0098308325E+000 +3.0374526978E-002 
11800000000.000 -9.9809229374E-001 +3.7384346128E-002  +8.8134256657E-005 +3.9756768383E-003  +1.0009470861E-004 +3.9754891768E-003  -1.0109370947E+000 +3.3415339887E-002 
12000000000.000 -9.9935466051E-001 +3.5544857383E-002  +1.1281016486E-004 +4.0501412004E-003  +6.1858481786E-005 +4.0531232953E-003  -1.0118870735E+000 +3.0988492072E-002 
12200000000.000 -9.9807137251E-001 +3.6462958902E-002  +8.4793908172E-005 +4.0973681025E-003  +8.2042628492E-005 +4.0796999820E-003  -1.0116807222E+000 +3.4148402512E-002 
12400000000.000 -9.9789512157E-001 +3.9067842066E-002  +8.4397055616E-005 +4.1319373995E-003  +8.3984283265E-005 +4.1460795328E-003  -1.0111759901E+000 +3.4463454038E-002 
12600000000.000 -9.9881958961E-001 +3.8442116231E-002  +5.2531562687E-005 +4.2056269012E-003  +6.2410814280E-005 +4.1838013567E-003  -1.0109519958E+000 +3.4907322377E-002 
12800000000.000 -9.9939775467E-001 +3.8770575076E-002  +5.9722384322E-005 +4.3106656522E-003  +6.3891689933E-005 +4.2918981053E-003  -1.0120863914E+000 +3.4781739116E-002 
13000000000.000 -9.9848860502E-001 +3.8001611829E-002  +6.4382140408E-005 +4.3499539606E-003  +5.3751460655E-005 +4.3677426875E-003  -1.0110042095E+000 +3.6189414561E-002 
13200000000.000 -9.9787825346E-001 +4.2293470353E-002  +1.9845938368E-005 +4.4208252802E-003  +4.5312812290E-005 +4.3583614752E-003  -1.0099209547E+000 +3.8247697055E-002 
13400000000.000 -1.0001462698E+000 +4.0704403073E-002  +5.1007467846E-005 +4.4302423485E-003  +4.9844467867E-005 +4.4418568723E-003  -1.0126595497E+000 +3.6382488906E-002 
13600000000.000 -9.9961727858E-001 +4.2320288718E-002  +4.4018506742E-005 +4.5244293287E-003  +7.4118055636E-005 +4.5308452100E-003  -1.0110894442E+000 +3.7043832242E-002 
13800000000.000 -1.0003857613E+000 +4.2395237833E-002  +3.1212548492E-005 +4.5437924564E-003  +7.8130957263E-005 +4.5729805715E-003  -1.0127508640E+000 +3.8498688489E-002 
14000000000.000 -9.9889218807E-001 +4.4659402221E-002  +3.7902605982E-005 +4.6636061743E-003  +3.2839951018E-005 +4.6197688207E-003  -1.0123775005E+000 +4.0057938546E-002 
14200000000.000 -1.0021859407E+000 +4.5797303319E-002  +1.2359639186E-005 +4.7170431353E-003  +2.6175890525E-005 +4.7255125828E-003  -1.0143330097E+000 +4.0005773306E-002 
14400000000.000 -1.0032168627E+000 +4.4103074819E-002  +3.5697950807E-005 +4.7907792032E-003  -3.1353687518E-005 +4.8093670048E-003  -1.0140199661E+000 +3.9950989187E-002 
14600000000.000 -9.9989372492E-001 +4.6979151666E-002  +3.8110989408E-005 +4.8312828876E-003  +3.1915700674E-005 +4.8061506823E-003  -1.0114156008E+000 +4.2779762298E-002 
14800000000.000 -1.0007101297E+000 +4.6251170337E-002  +1.7853984900E-005 +4.9053458497E-003  +1.4182818632E-005 +4.8900451511E-003  -1.0119103193E+000 +4.1807338595E-002 
15000000000.000 -1.0002417564E+000 +4.8152219504E-002  -1.3541583030E-005 +4.9415943213E-003  -1.2104299458E-005 +4.9391565844E-003  -1.0123776197E+000 +4.3443989009E-002 
15200000000.000 -1.0017524958E+000 +4.7558676451E-002  +8.8747447080E-006 +5.0378255546E-003  +1.5521192836E-005 +5.0827139057E-003  -1.0141935349E+000 +4.1983768344E-002 
15400000000.000 -9.9870115519E-001 +4.8033762723E-002  -1.4781974642E-005 +5.1176482812E-003  -2.2008936867E-005 +5.1210499369E-003  -1.0129789114E+000 +4.4513180852E-002 
15600000000.000 -9.9980956316E-001 +5.1311962306E-002  -3.0110868465E-005 +5.2031516097E-003  -3.1152749216E-006 +5.1529109478E-003  -1.0133848190E+000 +4.6501249075E-002 
15800000000.000 -1.0022081137E+000 +5.1175732166E-002  -1.3114171452E-005 +5.2572628483E-003  -2.2530926799E-005 +5.2064782940E-003  -1.0145646334E+000 +4.7053534538E-002 
16000000000.000 -1.0017491579E+000 +5.3513456136E-002  -3.9630125684E-005 +5.2843354642E-003  -5.7058387029E-005 +5.2616284229E-003  -1.0139508247E+000 +4.6705726534E-002 
16200000000.000 -9.9977570772E-001 +5.1447745413E-002  -3.1029358070E-005 +5.3349016234E-003  -5.3416370065E-005 +5.3144497797E-003  -1.0105597973E+000 +4.6916965395E-002 
16400000000.000 -1.0008558035E+000 +5.5540557951E-002  -3.4486289223E-005 +5.4285647348E-003  -9.5902178145E-005 +5.3798304871E-003  -1.0131105185E+000 +4.8644777387E-002 
16600000000.000 -1.0026960373E+000 +5.4202016443E-002  -1.0364170521E-005 +5.4831793532E-003  -2.3642714950E-005 +5.4482836276E-003  -1.0138424635E+000 +4.9346692860E-002 
16800000000.000 -1.0004158020E+000 +5.4445028305E-002  -6.9673558755E-005 +5.5289682932E-003  -4.8381290981E-005 +5.5167404935E-003  -1.0121724606E+000 +4.9229532480E-002 
17000000000.000 -9.9901407957E-001 +5.5954795331E-002  -7.2450726293E-005 +5.5726952851E-003  -7.8852266597E-005 +5.5678156205E-003  -1.0124967098E+000 +5.2474763244E-002 
17200000000.000 -1.0025334358E+000 +5.8340419084E-002  -4.7974073823E-005 +5.6484863162E-003  -1.2315718050E-004 +5.6469910778E-003  -1.0147711039E+000 +5.4184123874E-002 
17400000000.000 -1.0011255741E+000 +5.8797225356E-002  -7.2455004556E-005 +5.7457503863E-003  -6.9457462814E-005 +5.7131536305E-003  -1.0144542456E+000 +5.4034858942E-002 
17600000000.000 -1.0002855062E+000 +5.9309601784E-002  -1.0186534928E-004 +5.7716052979E-003  -8.9796289103E-005 +5.7430723682E-003  -1.0136451721E+000 +5.5229768157E-002 
17800000000.000 -1.0035763979E+000 +6.1281867325E-002  -1.3412098633E-004 +5.8565880172E-003  -1.3136489724E-004 +5.8152242564E-003  -1.0169695616E+000 +5.5218111724E-002 
18000000000.000 -1.0051416159E+000 +6.4587950706E-002  -1.1069953325E-004 +5.9131067246E-003  -8.1778576714E-005 +5.9070894495E-003  -1.0189090967E+000 +5.9677712619E-002 
18200000000.000 -9.9942106009E-001 +6.1460301280E-002  -1.3322467566E-004 +5.9537920170E-003  -1.2745887216E-004 +5.9887939133E-003  -1.0124465227E+000 +5.4986510426E-002 
18400000000.000 -1.0011436939E+000 +6.4329139888E-002  -1.3106930419E-004 +5.9769880027E-003  -1.2726669956E-004 +5.9523247182E-003  -1.0143229961E+000 +5.8487974107E-002 
18600000000.000 -1.0036118031E+000 +6.2633141875E-002  -1.8247646221E-004 +6.0800663196E-003  -1.8275566981E-004 +6.0253646225E-003  -1.0153260231E+000 +5.8365453035E-002 
18800000000.000 -1.0042449236E+000 +6.6231764853E-002  -1.7210330407E-004 +6.2000025064E-003  -1.4802407532E-004 +6.0967034660E-003  -1.0172650814E+000 +5.9744253755E-002 
19000000000.000 -9.9765592813E-001 +6.4144395292E-002  -1.5628074470E-004 +6.2422640622E-003  -1.7886792193E-004 +6.2162196264E-003  -1.0116586685E+000 +6.0089573264E-002 
19200000000.000 -1.0020617247E+000 +6.7784339190E-002  -1.9977247575E-004 +6.2793577090E-003  -1.6700847482E-004 +6.2454990111E-003  -1.0149885416E+000 +6.2310241163E-002 
19400000000.000 -1.0081827641E+000 +6.5454781055E-002  -1.8245050160E-004 +6.3656624407E-003  -2.0905249403E-004 +6.4073796384E-003  -1.0187920332E+000 +6.1628390104E-002 
19600000000.000 -1.0014026165E+000 +6.6932335496E-002  -1.9205315039E-004 +6.4378581010E-003  -2.4592847330E-004 +6.4424253069E-003  -1.0145969391E+000 +6.1707407236E-002 
19800000000.000 -9.9856728315E-001 +6.9271199405E-002  -1.6214362404E-004 +6.4650331624E-003  -1.7947246670E-004 +6.4917281270E-003  -1.0118278265E+000 +6.2232110649E-002 
20000000000.000 -9.9780124426E-001 +6.9380827248E-002  -1.7442135140E-004 +6.5487516113E-003  -2.1221737552E-004 +6.5631340258E-003  -1.0110268593E+000 +6.5096102655E-002 
20200000000.000 -1.0003905296E+000 +6.7551866174E-002  -2.1657891921E-004 +6.6413623281E-003  -1.6557121126E-004 +6.5863723867E-003  -1.0107077360E+000 +6.4273566008E-002 
20400000000.000 -9.9689000845E-001 +6.9812133908E-002  -2.6063996484E-004 +6.6537903622E-003  -1.7693555856E-004 +6.6417702474E-003  -1.0096764565E+000 +6.5565578640E-002 
20600000000.000 -9.9797326326E-001 +7.4090041220E-002  -2.5773860398E-004 +6.7172399722E-003  -2.2887335217E-004 +6.7126275972E-003  -1.0118895769E+000 +6.8478003144E-002 
20800000000.000 -9.9897712469E-001 +7.4363082647E-002  -1.9720609998E-004 +6.8373507820E-003  -1.5333799820E-004 +6.9175148383E-003  -1.0132126808E+000 +6.9667674601E-002 
21000000000.000 -9.9751234055E-001 +7.6754219830E-002  -2.1263967210E-004 +6.8683559075E-003  -1.8402133719E-004 +6.8503324874E-003  -1.0109008551E+000 +7.0343062282E-002 
21200000000.000 -9.9974560738E-001 +7.6519131660E-002  -1.6975853941E-004 +6.9004143588E-003  -1.7270415265E-004 +6.8560838699E-003  -1.0128819942E+000 +7.0256397128E-002 
21400000000.000 -9.9754625559E-001 +7.2644740343E-002  -1.9334185345E-004 +6.9865277037E-003  -1.9666551088E-004 +6.9038346410E-003  -1.0104676485E+000 +6.6982775927E-002 
21600000000.000 -9.9636477232E-001 +7.7759519219E-002  -2.6112273918E-004 +6.9558057003E-003  -2.4211623531E-004 +6.9827111438E-003  -1.0097068548E+000 +7.0019803941E-002 
21800000000.000 -9.9472010136E-001 +7.7727288008E-002  -2.4150460376E-004 +7.0631164126E-003  -2.0798979676E-004 +7.0346589200E-003  -1.0076686144E+000 +7.1330383420E-002 
22000000000.000 -9.9512279034E-001 +7.8764274716E-002  -2.6192466612E-004 +7.0715085603E-003  -2.8291286435E-004 +6.9792238064E-003  -1.0067582130E+000 +7.3563233018E-002 
22200000000.000 -9.9281799793E-001 +7.5119860470E-002  -3.2349798130E-004 +7.1008857340E-003  -3.3350283047E-004 +7.0815044455E-003  -1.0028823614E+000 +7.0371091366E-002 
22400000000.000 -9.8785269260E-001 +7.9055368900E-002  -2.8024392668E-004 +7.1549261920E-003  -2.9400768108E-004 +7.1111386642E-003  -1.0020529032E+000 +7.1792542934E-002 
22600000000.000 -9.9423050880E-001 +8.3550527692E-002  -2.8478197055E-004 +7.1825734340E-003  -2.9624265153E-004 +7.1277157404E-003  -1.0073077679E+000 +7.6359629631E-002 
22800000000.000 -9.9238264561E-001 +8.1031195819E-002  -3.9758853381E-004 +7.2118910030E-003  -3.8935235352E-004 +7.1443105116E-003  -1.0046796799E+000 +7.6196387410E-002 
