!  2-Port S-parameters saved by WinCal
! VAR MeasName=S-Parameters (CALIBRATED_DATA) read from VNA (MS4647B)
! VAR MeasDate=16-Sep-21 11:50:06
! VAR NAME=1ps_200u
! VAR FILENAME=1ps_200u.S2P
! VAR DATE=16-Sep-21 11:50:06
! VAR PHYS_PORTS=1,2
! VAR ObjTypeName=DATASET
! VAR IndexType=Frequency
!
# Hz S RI R 50
200000000.000 -1.0767286876E-003 -5.6467182003E-004  +1.0012383461E+000 +5.6417903397E-004  +1.0008751154E+000 -3.4640412196E-004  -9.4622327015E-004 -2.5528520928E-004 
400000000.000 -1.2894123793E-003 -9.4680661277E-005  +1.0011310577E+000 -1.6863318160E-003  +1.0010728836E+000 -1.7778188922E-003  -1.1737443274E-003 +3.7868168874E-005 
600000000.000 -1.0693315417E-003 -1.8374879437E-004  +1.0016494989E+000 -1.7331187846E-003  +1.0013283491E+000 -3.4162444063E-003  -1.0938667692E-003 -3.8713120739E-004 
800000000.000 -9.0668280609E-004 +4.6396246762E-004  +1.0011819601E+000 -2.7114620898E-003  +1.0010187626E+000 -4.0209800936E-003  -1.0062302463E-003 +6.6850363510E-004 
1000000000.000 -1.7154919915E-003 -4.2270109407E-004  +1.0015507936E+000 -5.3560808301E-003  +1.0012514591E+000 -7.1636759676E-003  -1.4932256890E-003 -3.4030026291E-004 
1200000000.000 -1.2812933419E-003 +1.0823138291E-003  +1.0008368492E+000 -5.6138322689E-003  +1.0018956661E+000 -7.4578113854E-003  -1.2492375681E-003 -2.3789529223E-004 
1400000000.000 -2.5917931926E-003 -1.2744129344E-004  +1.0008049011E+000 -6.9947736338E-003  +1.0013742447E+000 -9.0261455625E-003  -9.4708357938E-004 +8.8930106722E-004 
1600000000.000 -1.5444023302E-003 -4.4650706695E-004  +1.0011963844E+000 -8.1131188199E-003  +1.0006184578E+000 -9.9526522681E-003  -1.7749411054E-003 +5.0582555559E-005 
1800000000.000 -9.6401746850E-004 -3.9031935739E-004  +1.0013777018E+000 -8.9036468416E-003  +1.0009452105E+000 -1.1602733284E-002  -1.4516731026E-003 -3.5608909093E-004 
2000000000.000 -1.6651552869E-003 -8.5722160293E-004  +1.0017799139E+000 -9.0054450557E-003  +1.0011817217E+000 -1.2493189424E-002  -2.3733382113E-003 -8.0915819854E-004 
2200000000.000 -1.2554971036E-003 -9.0641004499E-004  +1.0009171963E+000 -1.0689591058E-002  +1.0004465580E+000 -1.3365365565E-002  -4.9661716912E-004 -2.6843702653E-004 
2400000000.000 -3.8637631224E-004 +6.3483015401E-004  +1.0009728670E+000 -1.3445366174E-002  +1.0004094839E+000 -1.3405648060E-002  -8.6318142712E-004 +5.9394206619E-004 
2600000000.000 -1.5499311266E-003 +1.9596538550E-005  +1.0003362894E+000 -1.5250723809E-002  +1.0014435053E+000 -1.4643014409E-002  -1.1201848974E-003 -1.5236505533E-005 
2800000000.000 -9.1773370514E-004 +3.3139935113E-005  +1.0009478331E+000 -1.7164107412E-002  +1.0008568764E+000 -1.8657173961E-002  -1.1015085038E-003 +2.4991523242E-004 
3000000000.000 -1.2806187151E-003 +2.5115464814E-004  +1.0000885725E+000 -1.8448924646E-002  +1.0009216070E+000 -1.6811627895E-002  -1.0750831570E-003 +3.5117677180E-004 
3200000000.000 -8.5090409266E-004 +6.3077779487E-005  +1.0000399351E+000 -1.9696634263E-002  +1.0015809536E+000 -2.0138841122E-002  -1.0369144147E-003 +1.4843589452E-004 
3400000000.000 -1.2238759082E-003 +2.4186525843E-004  +1.0006781816E+000 -2.0652128384E-002  +1.0008528233E+000 -2.1121557802E-002  -1.3398111332E-003 -6.9746522058E-005 
3600000000.000 -9.1422704281E-004 -1.8066284247E-004  +1.0008713007E+000 -2.2393638268E-002  +1.0005320311E+000 -2.1719595417E-002  -1.1856285855E-003 -1.5923815226E-005 
3800000000.000 -8.0224784324E-004 +9.4371818705E-004  +1.0003895760E+000 -2.3167986423E-002  +1.0006930828E+000 -2.3174444214E-002  -9.9099159706E-004 +3.0770050944E-004 
4000000000.000 -1.4060568064E-003 +1.6846893413E-004  +1.0007163286E+000 -2.4100538343E-002  +1.0001996756E+000 -2.3765033111E-002  -1.0529456194E-003 -5.3930576541E-005 
4200000000.000 -9.8155974410E-004 +6.1259657377E-004  +1.0003813505E+000 -2.6255561039E-002  +1.0003294945E+000 -2.5600785390E-002  -8.8003603742E-004 +3.8223023876E-004 
4400000000.000 -1.5467248159E-003 +4.6875324915E-004  +1.0004256964E+000 -2.6380367577E-002  +1.0004826784E+000 -2.6252347976E-002  -1.0670495685E-003 +3.7695976789E-004 
4600000000.000 -1.1005054694E-003 +4.0858134162E-004  +1.0004595518E+000 -2.8329156339E-002  +1.0007809401E+000 -2.8034029528E-002  -8.5544126341E-004 +4.2797336937E-004 
4800000000.000 -1.5833708458E-003 +1.2976751896E-004  +1.0003255606E+000 -2.9507214203E-002  +1.0005927086E+000 -2.8665443882E-002  -1.1348073604E-003 -2.0709454475E-005 
5000000000.000 -1.2723946711E-003 +1.6256714298E-004  +1.0007312298E+000 -3.0202416703E-002  +9.9994009733E-001 -2.9728351161E-002  -1.2080430752E-003 +4.2987053166E-004 
5200000000.000 -1.0989138391E-003 +8.4695406258E-004  +1.0006669760E+000 -3.2589569688E-002  +1.0002477169E+000 -3.1302731484E-002  -1.3918725308E-003 +5.7660532184E-004 
5400000000.000 -1.7547433963E-003 -2.4083563767E-004  +1.0002988577E+000 -3.2370332628E-002  +1.0005090237E+000 -3.2108083367E-002  -1.3428592356E-003 -2.7442563442E-004 
5600000000.000 -1.0433509015E-003 +8.0160115613E-004  +1.0004743338E+000 -3.3943209797E-002  +1.0005817413E+000 -3.3010795712E-002  -9.2722615227E-004 +5.0540210214E-004 
5800000000.000 -1.8115652492E-003 +6.5399793675E-004  +9.9999517202E-001 -3.5003446043E-002  +9.9954295158E-001 -3.4507669508E-002  -9.3195599038E-004 +3.8703874452E-004 
6000000000.000 -1.2738567311E-003 +8.8295276510E-004  +1.0006322861E+000 -3.6915685982E-002  +9.9996006489E-001 -3.6389123648E-002  -8.1716064597E-004 +3.8461538497E-004 
6200000000.000 -1.9267937168E-003 +2.2616224305E-004  +1.0004318953E+000 -3.8180738688E-002  +1.0000954866E+000 -3.7191823125E-002  -9.6270983340E-004 -1.7429050058E-004 
6400000000.000 -1.2707342394E-003 +7.7270291513E-004  +9.9979972839E-001 -3.8898095489E-002  +9.9961495399E-001 -3.8521550596E-002  -6.2853365671E-004 +9.4648561208E-004 
6600000000.000 -1.7067692243E-003 +1.0544861434E-003  +9.9972230196E-001 -4.0396541357E-002  +1.0000754595E+000 -3.9564352483E-002  -9.9102722015E-004 +8.2004955038E-004 
6800000000.000 -1.7037532525E-003 +1.1585882748E-004  +9.9993771315E-001 -4.1098974645E-002  +9.9961233139E-001 -4.0415562689E-002  -1.1696747970E-003 +6.1011663638E-004 
7000000000.000 -1.3353087706E-003 +8.1002537627E-004  +9.9921882153E-001 -4.2545367032E-002  +9.9998307228E-001 -4.1866932064E-002  -1.3311458752E-003 +6.1778555391E-004 
7200000000.000 -1.1978463735E-003 +2.4865064188E-004  +9.9986124039E-001 -4.3668653816E-002  +9.9954158068E-001 -4.2786262929E-002  -1.0750018992E-003 +4.6358670807E-004 
7400000000.000 -1.2324480340E-003 +1.4734304277E-003  +9.9964785576E-001 -4.4923812151E-002  +9.9951380491E-001 -4.3943557888E-002  -1.6538857017E-003 +1.2678821804E-003 
7600000000.000 -1.6500479542E-003 -4.3921891483E-004  +9.9955773354E-001 -4.6164464206E-002  +9.9978047609E-001 -4.5072149485E-002  -1.8245212268E-003 -5.2896427223E-004 
7800000000.000 -5.2249833243E-004 +7.3296896880E-004  +9.9986410141E-001 -4.7910276800E-002  +9.9984943867E-001 -4.6893455088E-002  -6.1025569448E-004 +4.3208771967E-004 
8000000000.000 -9.2624546960E-004 +8.6934585124E-004  +9.9937027693E-001 -4.8999626189E-002  +9.9935984612E-001 -4.7994442284E-002  -9.0843392536E-004 +2.9214148526E-004 
8200000000.000 -4.9772969214E-004 +1.4003246324E-003  +9.9934124947E-001 -5.0173059106E-002  +9.9917024374E-001 -4.9212232232E-002  -8.2753336756E-004 +6.2025571242E-004 
8400000000.000 -1.4646098716E-003 +1.1969906045E-003  +9.9908274412E-001 -5.1543701440E-002  +9.9982929230E-001 -5.0250463188E-002  -1.2107668445E-003 +3.4178642090E-004 
8600000000.000 -3.4298675018E-004 -1.4947632735E-004  +9.9964135885E-001 -5.2348110825E-002  +9.9938386679E-001 -5.1026631147E-002  -8.3588063717E-004 +2.7773241163E-004 
8800000000.000 -8.7663403247E-004 +2.2027425002E-003  +9.9933016300E-001 -5.3680505604E-002  +9.9956244230E-001 -5.2528642118E-002  -1.1136590037E-003 +1.5549198724E-003 
9000000000.000 -1.7072155606E-003 +1.0396915022E-003  +9.9930655956E-001 -5.4654426873E-002  +9.9923741817E-001 -5.4152786732E-002  -8.3518191241E-004 +4.4903578237E-004 
9200000000.000 -1.4367719414E-003 +1.8685734831E-003  +9.9952960014E-001 -5.5722329766E-002  +9.9978941679E-001 -5.4862998426E-002  -7.5128709432E-004 +1.2643865775E-003 
9400000000.000 -1.1706821388E-003 -3.1669659074E-004  +9.9907320738E-001 -5.6370195001E-002  +9.9987238646E-001 -5.5884111673E-002  -1.6529642744E-003 -6.4825505251E-004 
9600000000.000 -3.1038280576E-004 +1.5974043636E-003  +9.9932169914E-001 -5.8143973351E-002  +9.9968397617E-001 -5.6775096804E-002  -6.4211600693E-004 +1.1646514758E-003 
9800000000.000 -1.9305914175E-003 +1.2853170047E-003  +9.9869138002E-001 -5.9373479337E-002  +9.9920362234E-001 -5.8255083859E-002  -1.0069437558E-003 +7.1565370308E-004 
10000000000.000 -6.4945244230E-004 +1.4415680198E-003  +9.9909931421E-001 -6.1389975250E-002  +9.9906915426E-001 -5.9805061668E-002  -4.3269566959E-004 +1.0805252241E-003 
10200000000.000 -1.0348198703E-003 +9.1926578898E-004  +9.9830627441E-001 -6.1760988086E-002  +9.9887585640E-001 -6.0037747025E-002  -1.2613362633E-003 -2.3937803053E-004 
10400000000.000 -6.2437827000E-004 +1.5229136916E-003  +9.9808233976E-001 -6.3357345760E-002  +9.9923127890E-001 -6.1442527920E-002  -5.4509862093E-004 +5.1317788893E-004 
10600000000.000 -2.0266205538E-003 +2.7584030759E-003  +9.9895530939E-001 -6.3692018390E-002  +9.9915856123E-001 -6.3771419227E-002  -1.4398855856E-003 +1.6359267756E-003 
10800000000.000 -1.5527673531E-003 +4.6629042481E-004  +9.9865645170E-001 -6.5510749817E-002  +9.9909293652E-001 -6.4902976155E-002  -1.2175303418E-003 -4.3022542377E-004 
11000000000.000 -1.0529689025E-003 +1.7970001791E-003  +9.9839353561E-001 -6.7057088017E-002  +9.9847280979E-001 -6.5526597202E-002  -1.1034416966E-003 +5.3823488997E-004 
11200000000.000 -1.8351776525E-003 +9.3903887318E-004  +9.9887913465E-001 -6.8998329341E-002  +9.9856680632E-001 -6.7010834813E-002  -5.5505416822E-004 -7.7315809904E-004 
11400000000.000 -1.4333486324E-003 +2.3488081060E-003  +9.9925947189E-001 -6.9962926209E-002  +9.9830281734E-001 -6.8298190832E-002  -5.9752812376E-004 +6.4351077890E-004 
11600000000.000 -1.8184114015E-003 +1.0227301391E-003  +9.9847042561E-001 -7.0807479322E-002  +9.9849909544E-001 -6.9544255733E-002  -8.4336317377E-004 -1.1043290142E-003 
11800000000.000 -3.4964198130E-004 +2.0992713980E-003  +9.9797713757E-001 -7.2308070958E-002  +9.9903655052E-001 -7.0220127702E-002  +1.2094763806E-003 +1.5436441172E-003 
12000000000.000 -2.4469317868E-003 +2.7955197729E-003  +9.9805271626E-001 -7.3708146811E-002  +9.9785214663E-001 -7.1579575539E-002  -1.0909906123E-003 +1.4899843372E-003 
12200000000.000 -2.2773717064E-003 +2.1328691219E-004  +9.9920135736E-001 -7.5223483145E-002  +9.9823546410E-001 -7.2729036212E-002  -6.0822145315E-004 +1.8041548174E-005 
12400000000.000 -1.6059534391E-003 +2.2797547281E-003  +9.9872875214E-001 -7.4823327363E-002  +9.9804425240E-001 -7.5265057385E-002  -3.2441288931E-004 +2.0247907378E-003 
12600000000.000 -1.5413060319E-003 +1.8478751881E-003  +9.9895417690E-001 -7.6219119132E-002  +9.9795043468E-001 -7.5647465885E-002  -7.0885394234E-004 +1.7687838990E-003 
12800000000.000 -1.4631309314E-003 +1.9303560257E-003  +9.9738836288E-001 -7.8991681337E-002  +9.9793112278E-001 -7.6610207558E-002  -1.7520489637E-003 +1.2523198966E-003 
13000000000.000 -1.9953446463E-003 -1.1068003951E-003  +9.9830853939E-001 -7.9400114715E-002  +9.9820047617E-001 -7.7668860555E-002  -1.8928904319E-003 -1.3387756189E-003 
13200000000.000 +1.5765283024E-003 +2.5180706289E-003  +9.9834269285E-001 -8.0542542040E-002  +9.9840235710E-001 -7.9500548542E-002  +5.0334801199E-004 +1.3983594254E-003 
13400000000.000 -1.3994040200E-003 +4.7510880977E-003  +9.9754506350E-001 -8.2383148372E-002  +9.9795883894E-001 -8.0232016742E-002  -5.3734937683E-004 +1.6659385292E-003 
13600000000.000 -1.4755096054E-003 +1.7475321656E-003  +9.9766492844E-001 -8.2314617932E-002  +9.9828064442E-001 -8.0587193370E-002  -5.6989077711E-004 -1.8080424052E-003 
13800000000.000 -2.1738866344E-003 +2.7738721110E-003  +9.9769330025E-001 -8.3028025925E-002  +9.9738591909E-001 -8.3264946938E-002  -6.5761822043E-004 +4.0714265197E-004 
14000000000.000 -8.5371860769E-004 +2.6407388505E-003  +9.9755901098E-001 -8.5995346308E-002  +9.9826294184E-001 -8.4282822907E-002  +6.8649748573E-004 +7.4825587217E-004 
14200000000.000 -2.1286997944E-003 +6.0572861694E-003  +9.9808222055E-001 -8.6631461978E-002  +9.9802142382E-001 -8.4708794951E-002  +9.8642741796E-004 +2.5462463964E-003 
14400000000.000 -4.4094300829E-003 -1.3933020455E-005  +9.9765855074E-001 -8.8318087161E-002  +9.9713581800E-001 -8.5676893592E-002  -1.8582096091E-003 -9.2612119624E-004 
14600000000.000 -6.7113165278E-004 +1.6021073097E-003  +9.9683266878E-001 -9.0562351048E-002  +9.9755764008E-001 -8.8085629046E-002  -4.6006470802E-004 +6.5234606154E-004 
14800000000.000 -1.3684930746E-003 +2.8730235063E-003  +9.9665004015E-001 -9.0741567314E-002  +9.9755144119E-001 -8.8868819177E-002  -2.6955906651E-004 +6.2272156356E-004 
15000000000.000 -1.0730419308E-003 +3.4544074442E-003  +9.9725884199E-001 -9.2250257730E-002  +9.9727016687E-001 -8.9291490614E-002  +1.2135559227E-003 +5.4181506857E-004 
15200000000.000 -4.2603812180E-003 +1.9117884804E-003  +9.9690395594E-001 -9.3205764890E-002  +9.9743670225E-001 -9.1391719878E-002  -1.5712862369E-003 +1.1000497034E-003 
15400000000.000 -1.1535142548E-003 +7.2800245835E-004  +9.9808984995E-001 -9.3686170876E-002  +9.9749159813E-001 -9.2996716499E-002  -1.7858271895E-004 +2.3005582625E-004 
15600000000.000 -7.1996863699E-004 +4.7035641037E-003  +9.9725747108E-001 -9.5950149000E-002  +9.9712520838E-001 -9.3944646418E-002  +1.7322668573E-003 +8.8247621898E-004 
15800000000.000 -2.6806308888E-003 +2.9144070577E-003  +9.9655336142E-001 -9.6840649843E-002  +9.9634200335E-001 -9.5655478537E-002  -1.1703800556E-004 +1.8017893890E-003 
16000000000.000 -3.6577139981E-003 +1.9150240114E-003  +9.9632763863E-001 -9.8163038492E-002  +9.9636542797E-001 -9.6569143236E-002  -2.3666762281E-003 +1.6020030016E-003 
16200000000.000 -1.5057495330E-003 -5.1802900998E-005  +9.9451422691E-001 -9.9609121680E-002  +9.9685448408E-001 -9.6504114568E-002  +2.7937177219E-004 -9.9158543162E-004 
16400000000.000 -8.1196863903E-004 +3.8516095374E-003  +9.9554818869E-001 -1.0016930103E-001  +9.9672776461E-001 -9.8171964288E-002  +1.6355187399E-003 +5.8980606264E-004 
16600000000.000 -4.4511375017E-003 +2.4757501669E-003  +9.9572789669E-001 -1.0250928998E-001  +9.9696457386E-001 -9.9190220237E-002  -8.1125198631E-004 +1.1844319524E-003 
16800000000.000 -2.6067979634E-003 +8.7346386863E-004  +9.9641531706E-001 -1.0194770992E-001  +9.9625790119E-001 -1.0065906495E-001  -1.2490045046E-003 +4.4674740639E-004 
17000000000.000 -1.3867665548E-003 +2.9491526075E-003  +9.9546343088E-001 -1.0246326029E-001  +9.9581825733E-001 -1.0216865689E-001  +3.4647390712E-003 -7.7532714931E-004 
17200000000.000 -2.3100452963E-003 +2.0065540448E-003  +9.9444299936E-001 -1.0642143339E-001  +9.9600905180E-001 -1.0319893807E-001  +1.9201794639E-003 +2.3263092153E-003 
17400000000.000 -3.6106985062E-003 +1.6613341868E-003  +9.9577653408E-001 -1.0600131750E-001  +9.9579417706E-001 -1.0401599854E-001  -1.0232187342E-003 +3.6096912809E-003 
17600000000.000 -4.3284340063E-004 +1.2184162624E-003  +9.9545955658E-001 -1.0856264085E-001  +9.9580156803E-001 -1.0423185676E-001  +6.8672857014E-004 +3.1406953931E-003 
17800000000.000 +5.2269833395E-004 +4.4586807489E-003  +9.9577248096E-001 -1.0935804993E-001  +9.9638998508E-001 -1.0659201443E-001  +1.8078922294E-003 +1.7660740996E-003 
18000000000.000 -4.7082016245E-003 +1.0949127609E-003  +9.9563306570E-001 -1.1001359671E-001  +9.9622637033E-001 -1.0940336436E-001  -2.6260158047E-003 +2.0579218399E-003 
18200000000.000 -5.4669748351E-005 +1.0515500326E-003  +9.9654453993E-001 -1.1065103114E-001  +9.9711167812E-001 -1.0872903466E-001  -3.4705500584E-003 +2.1484908648E-003 
18400000000.000 +1.0801206809E-003 +7.5978781097E-003  +9.9705213308E-001 -1.1184900999E-001  +9.9669176340E-001 -1.0916140676E-001  +3.3128492068E-003 +3.0717148911E-003 
18600000000.000 -1.6253062058E-003 +4.6293120831E-003  +9.9570393562E-001 -1.1305534840E-001  +9.9598121643E-001 -1.1124120653E-001  -8.5613597184E-004 +1.3821190223E-003 
18800000000.000 -5.9301592410E-003 +1.4578751288E-003  +9.9525761604E-001 -1.1564267427E-001  +9.9645161629E-001 -1.1338475347E-001  -3.4086529631E-003 +2.5018936140E-004 
19000000000.000 +4.3055470451E-004 +3.8404465886E-004  +9.9479186535E-001 -1.1683806777E-001  +9.9757623672E-001 -1.1494937539E-001  -1.8875225214E-004 +1.0462580394E-004 
19200000000.000 +4.9104529899E-004 +9.3195233494E-003  +9.9722325802E-001 -1.1654932797E-001  +9.9658626318E-001 -1.1424311996E-001  +5.6071830913E-003 +2.9567249585E-003 
19400000000.000 -7.6710535213E-003 +1.3980616350E-003  +9.9610233307E-001 -1.1700008810E-001  +9.9665892124E-001 -1.1600460112E-001  -2.7154008858E-003 +1.9558675122E-003 
19600000000.000 -2.7725871187E-003 -8.9791842038E-004  +9.9518293142E-001 -1.1943255365E-001  +9.9601405859E-001 -1.1721173674E-001  -2.9918488581E-003 -1.7835806357E-003 
19800000000.000 -7.8840006609E-004 +3.3567824867E-003  +9.9500048161E-001 -1.2081275880E-001  +9.9496281147E-001 -1.1841426045E-001  +2.1352006588E-003 +1.2315784115E-003 
20000000000.000 -2.0864885300E-004 +2.8606224805E-003  +9.9267643690E-001 -1.2252838910E-001  +9.9412292242E-001 -1.1981903762E-001  +2.2179740481E-003 -2.3322680136E-005 
20200000000.000 -4.4497880153E-003 +1.5180578921E-003  +9.9415040016E-001 -1.2281590700E-001  +9.9316227436E-001 -1.2022414804E-001  -7.1441300679E-004 +1.6149916919E-003 
20400000000.000 -8.2973262761E-004 +2.5867999648E-004  +9.9371790886E-001 -1.2416449189E-001  +9.9377822876E-001 -1.2176208943E-001  +3.9458757965E-004 +2.4490646319E-004 
20600000000.000 -2.3235171102E-004 +4.8915403895E-003  +9.9299341440E-001 -1.2630520761E-001  +9.9391263723E-001 -1.2384756655E-001  +3.4499904141E-003 +1.9632212352E-003 
20800000000.000 -2.5312772486E-003 -8.1151010818E-005  +9.9308574200E-001 -1.2766464055E-001  +9.9319386482E-001 -1.2537360191E-001  -3.9285514504E-004 +8.7121356046E-004 
21000000000.000 -3.2406423998E-005 +4.1126897559E-003  +9.9261057377E-001 -1.2667052448E-001  +9.9300855398E-001 -1.2516881526E-001  +1.5046924818E-003 +3.9673615247E-003 
21200000000.000 -2.5902530178E-003 +7.0103923790E-003  +9.9252176285E-001 -1.2894585729E-001  +9.9352556467E-001 -1.2521047890E-001  -3.4960315679E-004 +7.3501830921E-003 
21400000000.000 -2.9094631318E-003 +6.7508395296E-004  +9.9276328087E-001 -1.2892651558E-001  +9.9303525686E-001 -1.2677772343E-001  -2.1952800453E-003 -2.4247150868E-003 
21600000000.000 -2.7582249604E-003 +4.6008244681E-005  +9.9279409647E-001 -1.3162867725E-001  +9.9303060770E-001 -1.2947450578E-001  -1.2957857689E-003 -7.6258968329E-004 
21800000000.000 -1.7791686114E-003 +4.0167509578E-003  +9.9286162853E-001 -1.3327512145E-001  +9.9283295870E-001 -1.3230095804E-001  -8.0433225958E-004 +1.8042294541E-003 
22000000000.000 -3.2738982700E-003 +7.2571509518E-003  +9.9208545685E-001 -1.3405910134E-001  +9.9218314886E-001 -1.3099646568E-001  +2.5217900984E-003 +1.5700701624E-003 
22200000000.000 -6.3609681092E-003 -4.1268449277E-003  +9.9374097586E-001 -1.3348099589E-001  +9.9319219589E-001 -1.3137093186E-001  -3.3101472072E-003 -4.4523081742E-003 
22400000000.000 -3.2207046752E-004 -1.9244162831E-003  +9.9380820990E-001 -1.3551758230E-001  +9.9283486605E-001 -1.3337814808E-001  +2.7717284393E-003 -1.9421505276E-003 
22600000000.000 -1.7410999862E-003 +5.9780520387E-003  +9.9174129963E-001 -1.3878402114E-001  +9.9218589067E-001 -1.3573281467E-001  +2.9370568227E-003 +5.4712966084E-003 
22800000000.000 -2.0577022806E-003 +7.5666385237E-004  +9.9025934935E-001 -1.3934990764E-001  +9.9124187231E-001 -1.3798411191E-001  +9.2256948119E-004 -7.5317517621E-004 
