!  2-Port S-parameters saved by WinCal
! VAR MeasName=S-Parameters (CALIBRATED_DATA) read from VNA (MS4647B)
! VAR MeasDate=16-Sep-21 11:37:52
! VAR NAME=7ps_900u
! VAR FILENAME=7ps_900u.S2P
! VAR DATE=16-Sep-21 11:37:52
! VAR PHYS_PORTS=1,2
! VAR ObjTypeName=DATASET
! VAR IndexType=Frequency
!
# Hz S RI R 50
200000000.000 +2.3131330090E-004 +1.0539528375E-005  +9.9991309643E-001 -7.0196059532E-003  +9.9927532673E-001 -7.6777045615E-003  +3.6429328611E-004 +3.0212121783E-004 
400000000.000 +3.9169113734E-004 +7.5713830302E-004  +9.9899303913E-001 -1.7444044352E-002  +9.9902552366E-001 -1.6012443230E-002  +3.7807461922E-004 +7.0020329440E-004 
600000000.000 +7.3175452417E-004 +7.2145985905E-004  +9.9889755249E-001 -2.3398987949E-002  +9.9895524979E-001 -2.4319710210E-002  +6.8702077260E-004 +5.3319241852E-004 
800000000.000 +7.7309837798E-004 +9.2356471578E-004  +9.9878799915E-001 -3.2261613756E-002  +9.9873453379E-001 -3.2304611057E-002  +8.2287559053E-004 +9.9086225964E-004 
1000000000.000 +7.1062828647E-004 +1.1013345793E-003  +9.9920904636E-001 -4.0288735181E-002  +9.9868309498E-001 -4.1189458221E-002  +9.1455603251E-004 +7.2179100243E-004 
1200000000.000 +5.1687948871E-004 +2.5770426728E-003  +9.9776780605E-001 -4.8451498151E-002  +9.9809062481E-001 -4.9238607287E-002  +1.0258767288E-003 +8.0111349234E-004 
1400000000.000 -3.0906082247E-004 +8.6741597624E-004  +9.9673086405E-001 -5.6526791304E-002  +9.9732857943E-001 -5.6444961578E-002  +1.1012636824E-003 +1.3360087760E-003 
1600000000.000 +7.5684272451E-004 +1.0928889969E-003  +9.9632370472E-001 -6.3879065216E-002  +9.9591618776E-001 -6.4495459199E-002  +8.4876618348E-004 +9.9830958061E-004 
1800000000.000 +1.1113327928E-003 +1.3776313281E-003  +9.9544447660E-001 -7.1761026978E-002  +9.9603193998E-001 -7.2863474488E-002  +1.2257088674E-003 +1.1259109015E-003 
2000000000.000 +9.5190899447E-004 +1.6437722370E-003  +9.9513494968E-001 -7.9653553665E-002  +9.9496841431E-001 -8.0404490232E-002  +8.0551556312E-004 +1.1301105842E-003 
2200000000.000 +1.3767227065E-003 +1.3274723897E-003  +9.9478083849E-001 -8.6594060063E-002  +9.9449646473E-001 -8.8644601405E-002  +1.7292840639E-003 +1.2292616302E-003 
2400000000.000 +1.9434021087E-003 +1.6709843185E-003  +9.9380153418E-001 -9.5464691520E-002  +9.9335545301E-001 -9.5351628959E-002  +1.2570153922E-003 +1.3878606260E-003 
2600000000.000 +1.5461766161E-003 +1.7202794552E-003  +9.9262571335E-001 -1.0360958427E-001  +9.9330151081E-001 -1.0307878256E-001  +1.8816512311E-003 +1.1935478542E-003 
2800000000.000 +2.0667805802E-003 +1.6112740850E-003  +9.9250644445E-001 -1.1158036441E-001  +9.9187391996E-001 -1.1237012595E-001  +2.0922776312E-003 +1.3022505445E-003 
3000000000.000 +1.9164246041E-003 +1.7828097334E-003  +9.8997151852E-001 -1.1962974072E-001  +9.9110567570E-001 -1.1841530353E-001  +2.2601867095E-003 +1.1457629735E-003 
3200000000.000 +1.8196041929E-003 +1.3751211809E-003  +9.8920738697E-001 -1.2752927840E-001  +9.8936098814E-001 -1.2815074623E-001  +2.0992227364E-003 +8.9878437575E-004 
3400000000.000 +1.8675423926E-003 +1.9616226200E-003  +9.8832243681E-001 -1.3507893682E-001  +9.8841625452E-001 -1.3526169956E-001  +2.3379835766E-003 +9.3720457517E-004 
3600000000.000 +2.2638810333E-003 +1.5248310519E-003  +9.8722434044E-001 -1.4305818081E-001  +9.8689061403E-001 -1.4313626289E-001  +2.2886923980E-003 +7.1826210478E-004 
3800000000.000 +2.3658641148E-003 +2.1211064886E-003  +9.8579168320E-001 -1.5078458190E-001  +9.8599988222E-001 -1.5068887174E-001  +2.4601549376E-003 +8.0212811008E-004 
4000000000.000 +2.1258716006E-003 +1.8956650747E-003  +9.8514330387E-001 -1.5852917731E-001  +9.8434329033E-001 -1.5856681764E-001  +2.7865178417E-003 +6.9343362702E-004 
4200000000.000 +2.4496712722E-003 +1.9920365885E-003  +9.8378735781E-001 -1.6615702212E-001  +9.8368382454E-001 -1.6688996553E-001  +2.8644362465E-003 +9.2208158458E-004 
4400000000.000 +2.2701672278E-003 +1.9824272022E-003  +9.8162585497E-001 -1.7445187271E-001  +9.8201459646E-001 -1.7417576909E-001  +2.9614905361E-003 +8.7594927754E-004 
4600000000.000 +2.3271923419E-003 +1.9368098583E-003  +9.8027366400E-001 -1.8205812573E-001  +9.8036396503E-001 -1.8206521869E-001  +2.9657650739E-003 +8.5741508519E-004 
4800000000.000 +2.1440375131E-003 +2.0219280850E-003  +9.7936779261E-001 -1.8975882232E-001  +9.7941160202E-001 -1.8935279548E-001  +2.9526944272E-003 +7.7315431554E-004 
5000000000.000 +2.2740559652E-003 +1.9530467689E-003  +9.7736853361E-001 -1.9735443592E-001  +9.7733330727E-001 -1.9691324234E-001  +3.0013329815E-003 +5.0236214884E-004 
5200000000.000 +2.5856413413E-003 +2.1917093545E-003  +9.7556763887E-001 -2.0520409942E-001  +9.7574752569E-001 -2.0419493318E-001  +2.7773196343E-003 +8.7434652960E-004 
5400000000.000 +2.2835524287E-003 +1.9708159380E-003  +9.7408163548E-001 -2.1248795092E-001  +9.7418069839E-001 -2.1286736429E-001  +3.0074073002E-003 +6.3302897615E-004 
5600000000.000 +2.7410078328E-003 +2.2578779608E-003  +9.7244668007E-001 -2.2029183805E-001  +9.7265207767E-001 -2.1992169321E-001  +3.4484942444E-003 +6.9223798346E-004 
5800000000.000 +2.4886783212E-003 +2.2564081009E-003  +9.6989011765E-001 -2.2759737074E-001  +9.7035402060E-001 -2.2746209800E-001  +3.5510517191E-003 +5.9774791589E-004 
6000000000.000 +2.8426379431E-003 +2.1933009848E-003  +9.6905654669E-001 -2.3571230471E-001  +9.6855044365E-001 -2.3547790945E-001  +3.4926654771E-003 +3.1361391302E-004 
6200000000.000 +2.5223186240E-003 +2.1743553225E-003  +9.6623593569E-001 -2.4323146045E-001  +9.6678060293E-001 -2.4282379448E-001  +3.6251209676E-003 +5.7275511790E-004 
6400000000.000 +2.8061000630E-003 +2.2182848770E-003  +9.6448808908E-001 -2.4979056418E-001  +9.6392917633E-001 -2.5038596988E-001  +3.6371517926E-003 +5.3395429859E-004 
6600000000.000 +2.7886258904E-003 +2.4097135756E-003  +9.6232211590E-001 -2.5801911950E-001  +9.6210056543E-001 -2.5783237815E-001  +4.0334514342E-003 +2.6874957257E-004 
6800000000.000 +2.8232506011E-003 +1.8760263920E-003  +9.6036416292E-001 -2.6580590010E-001  +9.5999950171E-001 -2.6534971595E-001  +3.9689457044E-003 +3.6715174792E-004 
7000000000.000 +3.0614768621E-003 +2.2321960423E-003  +9.5783513784E-001 -2.7350619435E-001  +9.5825552940E-001 -2.7332311869E-001  +3.8414956070E-003 +2.4218465842E-004 
7200000000.000 +3.2681326848E-003 +1.8127665389E-003  +9.5622998476E-001 -2.8039145470E-001  +9.5595824718E-001 -2.8051474690E-001  +4.2060166597E-003 +5.5809119658E-005 
7400000000.000 +3.3983387984E-003 +2.5132435840E-003  +9.5362830162E-001 -2.8785350919E-001  +9.5375335217E-001 -2.8744357824E-001  +3.9501297288E-003 +6.6384521779E-004 
7600000000.000 +3.4894503187E-003 +1.7851633020E-003  +9.5102673769E-001 -2.9605597258E-001  +9.5177161694E-001 -2.9565960169E-001  +4.0567880496E-003 -3.3488595363E-005 
7800000000.000 +3.5918056965E-003 +1.9151815213E-003  +9.4918906689E-001 -3.0358842015E-001  +9.4954001904E-001 -3.0283156037E-001  +4.3596248142E-003 -3.2533874037E-004 
8000000000.000 +3.4807089251E-003 +2.0217967685E-003  +9.4640260935E-001 -3.1115749478E-001  +9.4676190615E-001 -3.1049820781E-001  +4.2506591417E-003 -4.1712433449E-004 
8200000000.000 +3.6496990360E-003 +2.0403715316E-003  +9.4432264566E-001 -3.1849345565E-001  +9.4423520565E-001 -3.1811386347E-001  +4.4814618304E-003 -7.9513445962E-004 
8400000000.000 +3.2642509323E-003 +1.9418420270E-003  +9.4159108400E-001 -3.2485863566E-001  +9.4228076935E-001 -3.2533448935E-001  +4.5219995081E-003 -7.1345851757E-004 
8600000000.000 +3.4936356824E-003 +1.1598072015E-003  +9.3915599585E-001 -3.3323174715E-001  +9.3913453817E-001 -3.3242854476E-001  +4.5893248171E-003 -7.8540341929E-004 
8800000000.000 +3.9702081122E-003 +2.1290557925E-003  +9.3670636415E-001 -3.4090635180E-001  +9.3682360649E-001 -3.4017121792E-001  +5.4702684283E-003 -6.5537478076E-004 
9000000000.000 +3.3041408751E-003 +1.6870099353E-003  +9.3360131979E-001 -3.4724363685E-001  +9.3360114098E-001 -3.4729340672E-001  +5.3446111269E-003 -1.2609492987E-003 
9200000000.000 +3.5643363371E-003 +1.9340828294E-003  +9.3120008707E-001 -3.5488542914E-001  +9.3119484186E-001 -3.5447180271E-001  +5.4688197561E-003 -9.5305498689E-004 
9400000000.000 +3.4991921857E-003 +1.1413912289E-003  +9.2801439762E-001 -3.6145064235E-001  +9.2852383852E-001 -3.6232486367E-001  +4.4581140392E-003 -1.0434559081E-003 
9600000000.000 +3.9411801845E-003 +1.7500248505E-003  +9.2501920462E-001 -3.6986106634E-001  +9.2554402351E-001 -3.6910793185E-001  +5.1705096848E-003 -1.3648399618E-003 
9800000000.000 +3.2471818849E-003 +1.7534762155E-003  +9.2148154974E-001 -3.7679192424E-001  +9.2228370905E-001 -3.7659174204E-001  +5.0227683969E-003 -1.3600598322E-003 
10000000000.000 +3.6062379368E-003 +1.3970240252E-003  +9.1887336969E-001 -3.8486188650E-001  +9.1924554110E-001 -3.8386666775E-001  +5.1940707490E-003 -1.8340199022E-003 
10200000000.000 +3.7119791377E-003 +1.4298460446E-003  +9.1543900967E-001 -3.9072018862E-001  +9.1569745541E-001 -3.9031407237E-001  +5.0541972741E-003 -2.0290222019E-003 
10400000000.000 +3.6979557481E-003 +1.6444872599E-003  +9.1240108013E-001 -3.9922291040E-001  +9.1321581602E-001 -3.9804303646E-001  +5.2524846978E-003 -2.2371965460E-003 
10600000000.000 +3.5124802962E-003 +2.2820644081E-003  +9.0982937813E-001 -4.0587994456E-001  +9.1011565924E-001 -4.0540865064E-001  +5.1308255643E-003 -1.5708063729E-003 
10800000000.000 +3.3432941418E-003 +1.1718898313E-003  +9.0639173985E-001 -4.1250500083E-001  +9.0683025122E-001 -4.1268968582E-001  +4.9792528152E-003 -2.2310114000E-003 
11000000000.000 +3.4416783601E-003 +1.6078089830E-003  +9.0300089121E-001 -4.1980603337E-001  +9.0295809507E-001 -4.1957432032E-001  +4.9108732492E-003 -2.3001267109E-003 
11200000000.000 +3.0186939985E-003 +1.3856007718E-003  +8.9977627993E-001 -4.2749676108E-001  +8.9998698235E-001 -4.2641437054E-001  +4.9667488784E-003 -3.1464782078E-003 
11400000000.000 +3.1173212919E-003 +1.8154397840E-003  +8.9579701424E-001 -4.3455311656E-001  +8.9691627026E-001 -4.3315571547E-001  +5.0044236705E-003 -3.6356116179E-003 
11600000000.000 +3.0393060297E-003 +1.3498929329E-003  +8.9313787222E-001 -4.4111412764E-001  +8.9344477654E-001 -4.4087213278E-001  +4.7556627542E-003 -3.6902641878E-003 
11800000000.000 +3.2753176056E-003 +1.1817748891E-003  +8.8900101185E-001 -4.4860017300E-001  +8.9016968012E-001 -4.4764128327E-001  +5.9715379030E-003 -3.6076381803E-003 
12000000000.000 +3.1451089308E-003 +1.5966696665E-003  +8.8538581133E-001 -4.5536127687E-001  +8.8552343845E-001 -4.5482632518E-001  +6.1458791606E-003 -3.5580906551E-003 
12200000000.000 +2.7149016969E-003 +1.4774156734E-003  +8.8353663683E-001 -4.6327507496E-001  +8.8254970312E-001 -4.6150970459E-001  +6.2474552542E-003 -3.2573558856E-003 
12400000000.000 +3.1588622369E-003 +1.8650336424E-003  +8.7927043438E-001 -4.6844634414E-001  +8.7919259071E-001 -4.6880513430E-001  +6.2347082421E-003 -2.9660796281E-003 
12600000000.000 +3.2915985212E-003 +1.3380004093E-003  +8.7616115808E-001 -4.7609838843E-001  +8.7556171417E-001 -4.7486415505E-001  +5.7481429540E-003 -2.8397054411E-003 
12800000000.000 +2.8169609141E-003 +1.2578605674E-003  +8.7092828751E-001 -4.8352482915E-001  +8.7139272690E-001 -4.8252442479E-001  +4.7052190639E-003 -3.2927377615E-003 
13000000000.000 +2.2675378714E-003 +7.1654736530E-004  +8.6765676737E-001 -4.9012541771E-001  +8.6765325069E-001 -4.8936802149E-001  +4.7357021831E-003 -3.0245438684E-003 
13200000000.000 +3.2962323166E-003 +1.0517805349E-003  +8.6282408237E-001 -4.9671575427E-001  +8.6334007978E-001 -4.9606993794E-001  +4.5170374215E-003 -3.8935323246E-003 
13400000000.000 +3.8962562103E-003 +1.7177998088E-003  +8.5994398594E-001 -5.0358659029E-001  +8.6018562317E-001 -5.0307661295E-001  +6.0170181096E-003 -5.5273068137E-003 
13600000000.000 +2.8437003493E-003 +1.0230998741E-003  +8.5596829653E-001 -5.0978863239E-001  +8.5679078102E-001 -5.0922560692E-001  +4.8979646526E-003 -6.0296985321E-003 
13800000000.000 +2.6826325338E-003 +1.3460846385E-003  +8.5257238150E-001 -5.1645225286E-001  +8.5216844082E-001 -5.1665645838E-001  +5.0343158655E-003 -5.4522743449E-003 
14000000000.000 +3.3176012803E-003 +1.5190825798E-003  +8.4754782915E-001 -5.2373194695E-001  +8.4799504280E-001 -5.2338236570E-001  +5.4910527542E-003 -5.6105763651E-003 
14200000000.000 +3.2183423173E-003 +2.7857925743E-003  +8.4350121021E-001 -5.3059512377E-001  +8.4401571751E-001 -5.3025168180E-001  +7.0627401583E-003 -5.5186054669E-003 
14400000000.000 +1.1385217076E-003 +9.5857080305E-004  +8.3980131149E-001 -5.3727650642E-001  +8.3994823694E-001 -5.3623080254E-001  +6.6183940507E-003 -4.4280365109E-003 
14600000000.000 +2.8343938757E-003 +1.0935118189E-003  +8.3389639854E-001 -5.4450863600E-001  +8.3565455675E-001 -5.4282367229E-001  +5.7547469623E-003 -5.4574860260E-003 
14800000000.000 +2.8366686311E-003 +1.4391373843E-003  +8.3166235685E-001 -5.5094045401E-001  +8.3185422421E-001 -5.4979413748E-001  +5.3369570524E-003 -5.6532188319E-003 
15000000000.000 +2.5564408861E-003 +1.6169387382E-003  +8.2632058859E-001 -5.5698007345E-001  +8.2701009512E-001 -5.5513578653E-001  +6.4459359273E-003 -6.3148126937E-003 
15200000000.000 +1.8473754171E-003 +1.8237931654E-003  +8.2313287258E-001 -5.6417644024E-001  +8.2313460112E-001 -5.6353765726E-001  +6.9073629566E-003 -5.4061226547E-003 
15400000000.000 +2.8778936248E-003 +1.2415231904E-003  +8.1849294901E-001 -5.7049715519E-001  +8.1914579868E-001 -5.7036894560E-001  +6.8138879724E-003 -5.1366500556E-003 
15600000000.000 +2.7905891184E-003 +1.6864343779E-003  +8.1337499619E-001 -5.7759809494E-001  +8.1369596720E-001 -5.7561427355E-001  +5.9678722173E-003 -6.8252896890E-003 
15800000000.000 +1.6653889325E-003 +1.6819515731E-003  +8.0926793814E-001 -5.8335047960E-001  +8.0905145407E-001 -5.8228951693E-001  +6.5376688726E-003 -5.3215869702E-003 
16000000000.000 +1.1850660667E-003 +1.6109553399E-003  +8.0386716127E-001 -5.9011560678E-001  +8.0480909348E-001 -5.8928883076E-001  +5.6681958959E-003 -4.9958955497E-003 
16200000000.000 +1.3866469963E-003 +1.1062299600E-003  +7.9872018099E-001 -5.9596079588E-001  +8.0105435848E-001 -5.9450101852E-001  +6.1605283991E-003 -6.3961623237E-003 
16400000000.000 +1.7765709199E-003 +1.9458191236E-003  +7.9425919056E-001 -6.0244071484E-001  +7.9645973444E-001 -6.0171598196E-001  +4.9028131180E-003 -7.2809406556E-003 
16600000000.000 +1.0610112222E-003 +1.2442733860E-003  +7.8935360909E-001 -6.0968184471E-001  +7.9094058275E-001 -6.0781997442E-001  +6.7355609499E-003 -7.0637017488E-003 
16800000000.000 +1.5667328844E-003 +6.7494221730E-004  +7.8496968746E-001 -6.1494243145E-001  +7.8606164455E-001 -6.1407226324E-001  +5.9601590037E-003 -6.5526515245E-003 
17000000000.000 +1.6132814344E-003 +1.3342238963E-003  +7.7978134155E-001 -6.2077951431E-001  +7.8013044596E-001 -6.2074112892E-001  +6.5294494852E-003 -8.0014029518E-003 
17200000000.000 +1.3929782435E-003 +1.1875847122E-003  +7.7513462305E-001 -6.2799119949E-001  +7.7633798122E-001 -6.2706345320E-001  +8.5369758308E-003 -5.1266402006E-003 
17400000000.000 +5.7324243244E-004 +1.6682451824E-003  +7.7074468136E-001 -6.3391810656E-001  +7.7057826519E-001 -6.3283562660E-001  +6.7013581283E-003 -4.8579438590E-003 
17600000000.000 +1.0812486289E-003 -4.5890505135E-005  +7.6632249355E-001 -6.4097118378E-001  +7.6670116186E-001 -6.3950270414E-001  +5.9105805121E-003 -6.6552278586E-003 
17800000000.000 +1.7909400631E-003 +2.3012952879E-003  +7.6114392281E-001 -6.4579015970E-001  +7.6067441702E-001 -6.4588820934E-001  +3.9468267933E-003 -7.7759567648E-003 
18000000000.000 -5.8404973242E-004 +1.4868021244E-003  +7.5474125147E-001 -6.5270954370E-001  +7.5665414333E-001 -6.5337437391E-001  +3.8145864382E-003 -6.8614305928E-003 
18200000000.000 +4.1282575694E-004 +9.9283736199E-004  +7.5051873922E-001 -6.5792649984E-001  +7.5162768364E-001 -6.5716427565E-001  +1.8665026873E-003 -6.3893035986E-003 
18400000000.000 +7.9277280020E-004 +2.1095098928E-003  +7.4623578787E-001 -6.6497737169E-001  +7.4574756622E-001 -6.6469097137E-001  +2.0338422619E-003 -1.0923046619E-002 
18600000000.000 +2.7009169571E-004 +9.4844604610E-004  +7.4009042978E-001 -6.6915059090E-001  +7.4078893661E-001 -6.6855835915E-001  +2.8441888280E-003 -8.8346367702E-003 
18800000000.000 -4.2386594578E-004 +1.6346449265E-003  +7.3530423641E-001 -6.7604988813E-001  +7.3460745811E-001 -6.7677199841E-001  +3.1152041629E-003 -8.1004546955E-003 
19000000000.000 +5.4478953825E-004 +1.9504989905E-004  +7.2882604599E-001 -6.8173605204E-001  +7.2987878323E-001 -6.8176829815E-001  +4.9749333411E-003 -8.7428055704E-003 
19200000000.000 +7.2608723713E-005 +1.3146807905E-003  +7.2539705038E-001 -6.9193786383E-001  +7.2582727671E-001 -6.9230449200E-001  +6.5952271689E-004 -1.1960885487E-002 
19400000000.000 -2.9221328441E-003 +3.0314472970E-003  +7.2118365765E-001 -6.9640851021E-001  +7.2250545025E-001 -6.9716614485E-001  +3.0801242683E-003 -5.4479674436E-003 
19600000000.000 +5.4076022934E-004 +1.5527058858E-003  +7.1416789293E-001 -7.0240771770E-001  +7.1526390314E-001 -7.0322370529E-001  +3.4719626419E-003 -8.4883328527E-003 
19800000000.000 +1.6338759451E-004 +2.7499276257E-005  +7.0889919996E-001 -7.0834600925E-001  +7.1060812473E-001 -7.0875066519E-001  +5.0021447241E-003 -1.0882938281E-002 
20000000000.000 -6.3392159063E-004 +1.3125160476E-003  +7.0194584131E-001 -7.1361535788E-001  +7.0423579216E-001 -7.1398931742E-001  +3.7336435635E-003 -9.0523287654E-003 
20200000000.000 -1.1238349834E-003 +2.8942935169E-003  +6.9702148438E-001 -7.1851402521E-001  +6.9784319401E-001 -7.1938592196E-001  +5.4032206535E-003 -6.5987543203E-003 
20400000000.000 +1.0296177352E-003 +9.6758641303E-004  +6.9219541550E-001 -7.2499215603E-001  +6.9265460968E-001 -7.2500139475E-001  +6.0096615925E-003 -9.4385100529E-003 
20600000000.000 -1.4835047768E-003 +1.5622450737E-003  +6.8391835690E-001 -7.3082840443E-001  +6.8569570780E-001 -7.3119223118E-001  +2.2157146595E-003 -9.7056850791E-003 
20800000000.000 -1.5563778579E-003 +3.5678229760E-003  +6.7851883173E-001 -7.3737990856E-001  +6.8072533607E-001 -7.3697191477E-001  +6.5368469805E-003 -5.4529374465E-003 
21000000000.000 +9.5387507463E-004 +2.6029574219E-003  +6.7402106524E-001 -7.3990595341E-001  +6.7505168915E-001 -7.4135363102E-001  +7.0839016698E-003 -8.2509126514E-003 
21200000000.000 -3.5229031928E-003 +1.4753441792E-003  +6.6640424728E-001 -7.4757248163E-001  +6.6817885637E-001 -7.4859154224E-001  +3.9356052876E-003 -8.6626168340E-003 
21400000000.000 -3.9586001076E-003 +3.0099253636E-003  +6.6171139479E-001 -7.5208747387E-001  +6.6267031431E-001 -7.5240278244E-001  +9.0757565340E-004 -7.0018372498E-003 
21600000000.000 -1.5845678281E-003 +4.1201375425E-003  +6.5442150831E-001 -7.5818574429E-001  +6.5631210804E-001 -7.5845068693E-001  +5.3525408730E-003 -8.1909745932E-003 
21800000000.000 -1.9109057030E-003 +3.1071875710E-003  +6.4869672060E-001 -7.6353079081E-001  +6.4843398333E-001 -7.5982111692E-001  +2.1312546451E-003 -9.9524194375E-003 
22000000000.000 -3.5425287206E-003 +3.5982353147E-003  +6.4301782846E-001 -7.6789563894E-001  +6.4290690422E-001 -7.6450127363E-001  +1.7068168381E-003 -1.0230242275E-002 
22200000000.000 -6.4365267754E-003 +3.4217294306E-003  +6.3793611526E-001 -7.7247381210E-001  +6.3592129946E-001 -7.7046257257E-001  +1.1909343302E-003 -5.5773332715E-003 
22400000000.000 -4.2520677671E-003 +2.5703092106E-003  +6.2959694862E-001 -7.7617532015E-001  +6.2957847118E-001 -7.7467316389E-001  +1.0836740257E-003 -9.4216708094E-003 
22600000000.000 -2.9729804955E-003 +3.3112384845E-003  +6.2165379524E-001 -7.8152430058E-001  +6.2377202511E-001 -7.8008908033E-001  +3.1243208796E-003 -9.3974154443E-003 
22800000000.000 -4.6882475726E-003 +3.1747091562E-003  +6.1626720428E-001 -7.8499567509E-001  +6.1665147543E-001 -7.8522914648E-001  +1.7149461200E-003 -8.3462232724E-003 
