!  2-Port S-parameters saved by WinCal
! VAR MeasName=S-Parameters (CALIBRATED_DATA) read from VNA (MS4647B)
! VAR MeasDate=16-Sep-21 11:22:12
! VAR NAME=27ps_3500u
! VAR FILENAME=27ps_3500u.S2P
! VAR DATE=16-Sep-21 11:22:12
! VAR PHYS_PORTS=1,2
! VAR ObjTypeName=DATASET
! VAR IndexType=Frequency
!
# Hz S RI R 50
200000000.000 +5.5325077847E-003 +2.0023393445E-003  +9.9434769154E-001 -3.3612258732E-002  +9.9369502068E-001 -3.4950070083E-002  +5.5484492332E-003 +2.0476097707E-003 
400000000.000 +6.4940317534E-003 +3.3731183503E-003  +9.9058765173E-001 -6.8392045796E-002  +9.9033141136E-001 -6.7378491163E-002  +6.8356865086E-003 +3.1334487721E-003 
600000000.000 +7.7129607089E-003 +3.8582696579E-003  +9.8762446642E-001 -9.9052488804E-002  +9.8743772507E-001 -1.0058982670E-001  +7.8611988574E-003 +3.3717534970E-003 
800000000.000 +8.4751518443E-003 +4.8044584692E-003  +9.8283463717E-001 -1.3212834299E-001  +9.8285788298E-001 -1.3280136883E-001  +8.6546232924E-003 +4.5832353644E-003 
1000000000.000 +8.6524952203E-003 +5.1210904494E-003  +9.7795319557E-001 -1.6560447216E-001  +9.7778081894E-001 -1.6675513983E-001  +8.8820764795E-003 +4.0068989620E-003 
1200000000.000 +9.4226431102E-003 +6.4055076800E-003  +9.7072827816E-001 -1.9634693861E-001  +9.7135823965E-001 -1.9860230386E-001  +9.9259912968E-003 +3.9498950355E-003 
1400000000.000 +8.6869644001E-003 +5.9309643693E-003  +9.6287363768E-001 -2.2827623785E-001  +9.6330195665E-001 -2.2956126928E-001  +1.0360063054E-002 +5.5981986225E-003 
1600000000.000 +1.0285057127E-002 +5.7676616125E-003  +9.5475995541E-001 -2.5928232074E-001  +9.5387262106E-001 -2.6079884171E-001  +1.0043985210E-002 +4.6620592475E-003 
1800000000.000 +1.1920063756E-002 +6.5702791326E-003  +9.4476568699E-001 -2.9032033682E-001  +9.4510740042E-001 -2.9195058346E-001  +1.1454555206E-002 +5.2993008867E-003 
2000000000.000 +1.2251247652E-002 +6.7046857439E-003  +9.3652546406E-001 -3.2049721479E-001  +9.3536597490E-001 -3.2180500031E-001  +1.1126032099E-002 +5.4382835515E-003 
2200000000.000 +1.3928169385E-002 +6.2210857868E-003  +9.2469209433E-001 -3.5116460919E-001  +9.2376959324E-001 -3.5330301523E-001  +1.4259785414E-002 +4.3397755362E-003 
2400000000.000 +1.5956297517E-002 +7.1022105403E-003  +9.1200697422E-001 -3.8177379966E-001  +9.1145342588E-001 -3.8222557306E-001  +1.4290167019E-002 +4.1482467204E-003 
2600000000.000 +1.5141930431E-002 +6.4878314734E-003  +8.9789360762E-001 -4.1214066744E-001  +8.9864605665E-001 -4.1239953041E-001  +1.4675810002E-002 +4.1546914726E-003 
2800000000.000 +1.6240578145E-002 +6.2594953924E-003  +8.8318699598E-001 -4.4237887859E-001  +8.8252907991E-001 -4.4303077459E-001  +1.5665614977E-002 +4.3311594054E-003 
3000000000.000 +1.7039073631E-002 +6.2237940729E-003  +8.6779797077E-001 -4.7076702118E-001  +8.6785399914E-001 -4.7036680579E-001  +1.6082966700E-002 +3.7927760277E-003 
3200000000.000 +1.7391677946E-002 +6.0439701192E-003  +8.5104674101E-001 -4.9834749103E-001  +8.5154736042E-001 -4.9869278073E-001  +1.6434546560E-002 +2.8224927373E-003 
3400000000.000 +1.8165338784E-002 +5.8702565730E-003  +8.3469790220E-001 -5.2623075247E-001  +8.3427697420E-001 -5.2619856596E-001  +1.6947923228E-002 +2.4862319697E-003 
3600000000.000 +1.8780399114E-002 +5.0187772140E-003  +8.1593471766E-001 -5.5353951454E-001  +8.1619584560E-001 -5.5289977789E-001  +1.7088035122E-002 +2.2044247016E-003 
3800000000.000 +1.9712781534E-002 +5.1667871885E-003  +7.9749017954E-001 -5.7936751842E-001  +7.9802578688E-001 -5.7965081930E-001  +1.7851481214E-002 +1.5315271448E-003 
4000000000.000 +1.9689580426E-002 +4.5790402219E-003  +7.7812153101E-001 -6.0448461771E-001  +7.7774620056E-001 -6.0485094786E-001  +1.8363321200E-002 +9.0307951905E-004 
4200000000.000 +2.0714549348E-002 +4.4966023415E-003  +7.5699859858E-001 -6.3085168600E-001  +7.5720787048E-001 -6.3026458025E-001  +1.8972935155E-002 +1.2008976191E-003 
4400000000.000 +2.0568680018E-002 +3.6367597058E-003  +7.3558384180E-001 -6.5410315990E-001  +7.3629575968E-001 -6.5409982204E-001  +1.8979601562E-002 +3.6265337258E-004 
4600000000.000 +2.1493807435E-002 +3.1990513671E-003  +7.1343415976E-001 -6.7824065685E-001  +7.1429520845E-001 -6.7774897814E-001  +1.9568705931E-002 -2.5280454429E-004 
4800000000.000 +2.1030262113E-002 +2.6941194665E-003  +6.9185322523E-001 -7.0061123371E-001  +6.9181150198E-001 -7.0047324896E-001  +1.9534653053E-002 -8.4694183897E-004 
5000000000.000 +2.2583201528E-002 +2.2421253379E-003  +6.6753286123E-001 -7.2239917517E-001  +6.6773444414E-001 -7.2108674049E-001  +1.9634926692E-002 -1.3218484819E-003 
5200000000.000 +2.2385766730E-002 +1.6672449419E-003  +6.4276498556E-001 -7.4369221926E-001  +6.4331895113E-001 -7.4358552694E-001  +1.9143801183E-002 -2.1801851690E-003 
5400000000.000 +2.2707598284E-002 +9.0930261649E-004  +6.1868458986E-001 -7.6338440180E-001  +6.1873412132E-001 -7.6406365633E-001  +2.0157473162E-002 -2.9740289319E-003 
5600000000.000 +2.3634606972E-002 +6.9346377859E-004  +5.9278428555E-001 -7.8335314989E-001  +5.9371721745E-001 -7.8288716078E-001  +2.0469252020E-002 -3.6225055810E-003 
5800000000.000 +2.3223301396E-002 +1.0673734505E-004  +5.6703889370E-001 -8.0177801847E-001  +5.6744104624E-001 -8.0051213503E-001  +2.0805628970E-002 -4.5310067944E-003 
6000000000.000 +2.3858979344E-002 -1.2102269102E-003  +5.4016327858E-001 -8.2011467218E-001  +5.4009103775E-001 -8.1940841675E-001  +1.9507989287E-002 -4.7031706199E-003 
6200000000.000 +2.3331752047E-002 -1.6840483295E-003  +5.1327979565E-001 -8.3684003353E-001  +5.1384913921E-001 -8.3649176359E-001  +2.0276542753E-002 -5.4977340624E-003 
6400000000.000 +2.4516263977E-002 -2.3026277777E-003  +4.8613348603E-001 -8.5206151009E-001  +4.8610293865E-001 -8.5164707899E-001  +2.0295672119E-002 -5.7871583849E-003 
6600000000.000 +2.3780772462E-002 -3.0370503664E-003  +4.5757091045E-001 -8.6764132977E-001  +4.5800709724E-001 -8.6797338724E-001  +1.9402407110E-002 -7.6526761986E-003 
6800000000.000 +2.4004234001E-002 -4.1525559500E-003  +4.2907065153E-001 -8.8240832090E-001  +4.2985561490E-001 -8.8141644001E-001  +1.9950047135E-002 -8.0954814330E-003 
7000000000.000 +2.4275338277E-002 -4.8641455360E-003  +3.9950066805E-001 -8.9462900162E-001  +4.0038159490E-001 -8.9531230927E-001  +1.9062830135E-002 -8.2963779569E-003 
7200000000.000 +2.4362988770E-002 -5.9161460958E-003  +3.7049520016E-001 -9.0776938200E-001  +3.7139454484E-001 -9.0722239017E-001  +1.9943892956E-002 -9.0096304193E-003 
7400000000.000 +2.4234024808E-002 -6.2234126963E-003  +3.4006789327E-001 -9.1878777742E-001  +3.4114167094E-001 -9.1873985529E-001  +1.8837297335E-002 -8.3104064688E-003 
7600000000.000 +2.3062555119E-002 -7.5999600813E-003  +3.1040948629E-001 -9.2966473103E-001  +3.1137439609E-001 -9.2952919006E-001  +1.8854416907E-002 -1.0078500025E-002 
7800000000.000 +2.4518508464E-002 -7.9804705456E-003  +2.7999824286E-001 -9.3955445290E-001  +2.8071141243E-001 -9.3906426430E-001  +1.8749985844E-002 -1.0013938881E-002 
8000000000.000 +2.3476671427E-002 -8.5308924317E-003  +2.4840819836E-001 -9.4746857882E-001  +2.4949789047E-001 -9.4723528624E-001  +1.7087519169E-002 -1.0469159111E-002 
8200000000.000 +2.3660147563E-002 -8.8008129969E-003  +2.1730691195E-001 -9.5534723997E-001  +2.1825911105E-001 -9.5442605019E-001  +1.6733657569E-002 -1.1108474806E-002 
8400000000.000 +2.2330271080E-002 -9.3244258314E-003  +1.8646320701E-001 -9.6162849665E-001  +1.8678006530E-001 -9.6195483208E-001  +1.6054084525E-002 -1.2019228190E-002 
8600000000.000 +2.3437822238E-002 -9.9712656811E-003  +1.5494556725E-001 -9.6721547842E-001  +1.5644349158E-001 -9.6627467871E-001  +1.7633575946E-002 -1.2701420113E-002 
8800000000.000 +2.2216316313E-002 -1.0325899348E-002  +1.2314957380E-001 -9.7149348259E-001  +1.2415682524E-001 -9.7142094374E-001  +1.6388939694E-002 -1.3927860186E-002 
9000000000.000 +2.1668825299E-002 -1.1101644486E-002  +9.1251932085E-002 -9.7457009554E-001  +9.2146538198E-002 -9.7439306974E-001  +1.5921561047E-002 -1.5466438606E-002 
9200000000.000 +2.0775174722E-002 -1.1792640202E-002  +5.9826064855E-002 -9.7664886713E-001  +6.0841027647E-002 -9.7718918324E-001  +1.5491607599E-002 -1.4081236906E-002 
9400000000.000 +2.0487172529E-002 -1.2630268000E-002  +2.8277456760E-002 -9.7776532173E-001  +2.9159830883E-002 -9.7850769758E-001  +1.5645002946E-002 -1.3680125587E-002 
9600000000.000 +2.1647222340E-002 -1.2412403710E-002  -3.9187446237E-003 -9.7782766819E-001  -3.4505235963E-003 -9.7820466757E-001  +1.4741929248E-002 -1.4332395978E-002 
9800000000.000 +1.9838958979E-002 -1.3178966008E-002  -3.6128733307E-002 -9.7670358419E-001  -3.5223674029E-002 -9.7743892670E-001  +1.3452309184E-002 -1.4783143066E-002 
10000000000.000 +1.9995899871E-002 -1.3781880960E-002  -6.8992592394E-002 -9.7565585375E-001  -6.7542687058E-002 -9.7577440739E-001  +1.2566974387E-002 -1.4838673174E-002 
10200000000.000 +1.8555207178E-002 -1.3981712051E-002  -9.9196158350E-002 -9.7221040726E-001  -9.8498582840E-002 -9.7223168612E-001  +1.2462004088E-002 -1.4454599470E-002 
10400000000.000 +2.0139291883E-002 -1.4017999172E-002  -1.3150589168E-001 -9.6730017662E-001  -1.3034550846E-001 -9.6846342087E-001  +1.2670167722E-002 -1.5295782126E-002 
10600000000.000 +1.7695257440E-002 -1.4458227903E-002  -1.6315495968E-001 -9.6378791332E-001  -1.6263876855E-001 -9.6363818645E-001  +1.0765833780E-002 -1.5058521181E-002 
10800000000.000 +1.7304267734E-002 -1.5921693295E-002  -1.9430162013E-001 -9.5672017336E-001  -1.9394215941E-001 -9.5764571428E-001  +1.1921926402E-002 -1.5781428665E-002 
11000000000.000 +1.7158821225E-002 -1.5148654580E-002  -2.2566680610E-001 -9.4995892048E-001  -2.2448894382E-001 -9.5055431128E-001  +1.0428303853E-002 -1.4348496683E-002 
11200000000.000 +1.6302913427E-002 -1.5523530543E-002  -2.5732129812E-001 -9.4190788269E-001  -2.5580745935E-001 -9.4233453274E-001  +9.6075227484E-003 -1.5935810283E-002 
11400000000.000 +1.5746530145E-002 -1.5863828361E-002  -2.8776648641E-001 -9.3310993910E-001  -2.8588217497E-001 -9.3358439207E-001  +7.3118065484E-003 -1.5306625515E-002 
11600000000.000 +1.5139034949E-002 -1.6626751050E-002  -3.1708666682E-001 -9.2321270704E-001  -3.1613102555E-001 -9.2350453138E-001  +7.9994127154E-003 -1.5712294728E-002 
11800000000.000 +1.5863889828E-002 -1.5613022260E-002  -3.4685212374E-001 -9.1171383858E-001  -3.4615516663E-001 -9.1356199980E-001  +8.4486259148E-003 -1.5180328861E-002 
12000000000.000 +1.2691308744E-002 -1.5739543363E-002  -3.7706473470E-001 -8.9998370409E-001  -3.7494176626E-001 -9.0006142855E-001  +4.9460078590E-003 -1.7240805551E-002 
12200000000.000 +1.4435016550E-002 -1.7662009224E-002  -4.0659043193E-001 -8.8798177242E-001  -4.0429443121E-001 -8.8746815920E-001  +9.0757654980E-003 -1.8801074475E-002 
12400000000.000 +1.3532023877E-002 -1.7404725775E-002  -4.3384706974E-001 -8.7388145924E-001  -4.3404251337E-001 -8.7362968922E-001  +7.3155802675E-003 -1.5905918553E-002 
12600000000.000 +1.1986426078E-002 -1.7560565844E-002  -4.6255752444E-001 -8.5870462656E-001  -4.6161475778E-001 -8.5935008526E-001  +6.3597699627E-003 -1.4969930053E-002 
12800000000.000 +1.1248116381E-002 -1.6643812880E-002  -4.9071016908E-001 -8.4181922674E-001  -4.8928713799E-001 -8.4310495853E-001  +5.2143642679E-003 -1.4446721412E-002 
13000000000.000 +1.2121863663E-002 -1.8453232944E-002  -5.1774299145E-001 -8.2597786188E-001  -5.1649010181E-001 -8.2593619823E-001  +7.7720577829E-003 -1.6742939129E-002 
13200000000.000 +1.3329879381E-002 -1.6670685261E-002  -5.4463714361E-001 -8.0923914909E-001  -5.4251140356E-001 -8.1019580364E-001  +5.9224884026E-003 -1.3150369748E-002 
13400000000.000 +7.6645477675E-003 -1.6057183966E-002  -5.6994128227E-001 -7.9006576538E-001  -5.6931173801E-001 -7.9136884212E-001  -3.9431609912E-004 -1.4462089166E-002 
13600000000.000 +9.8617030308E-003 -1.7017195001E-002  -5.9526026249E-001 -7.7072387934E-001  -5.9369289875E-001 -7.7177566290E-001  +3.6284436937E-003 -1.5911730006E-002 
13800000000.000 +8.6282882839E-003 -1.6985049471E-002  -6.1826103926E-001 -7.5179797411E-001  -6.1939525604E-001 -7.5193679333E-001  +2.9066102579E-003 -1.4567264356E-002 
14000000000.000 +8.8291270658E-003 -1.7229024321E-002  -6.4434665442E-001 -7.3069626093E-001  -6.4306944609E-001 -7.3112893105E-001  +2.6055404451E-003 -1.4811954461E-002 
14200000000.000 +5.3811208345E-003 -1.4501161873E-002  -6.6642224789E-001 -7.0890837908E-001  -6.6702866554E-001 -7.0942199230E-001  +9.6050498541E-004 -1.3678912073E-002 
14400000000.000 +5.7515581138E-003 -1.8315277994E-002  -6.8990659714E-001 -6.8656110764E-001  -6.8899434805E-001 -6.8815487623E-001  +2.9589312617E-003 -1.8199082464E-002 
14600000000.000 +7.4590318836E-003 -1.6995552927E-002  -7.1224731207E-001 -6.6257679462E-001  -7.1102160215E-001 -6.6479223967E-001  +2.1962313913E-003 -1.5012887307E-002 
14800000000.000 +5.4500857368E-003 -1.5510164201E-002  -7.3338913918E-001 -6.3958638906E-001  -7.3241966963E-001 -6.4087200165E-001  +9.3419855693E-004 -1.4055280015E-002 
15000000000.000 +5.7961987332E-003 -1.4751750045E-002  -7.5329393148E-001 -6.1545503139E-001  -7.5238341093E-001 -6.1640530825E-001  +2.7267429978E-003 -1.3193575665E-002 
15200000000.000 +2.8559099883E-003 -1.6694357619E-002  -7.7274376154E-001 -5.9096711874E-001  -7.7286684513E-001 -5.9163534641E-001  -3.8835132727E-004 -1.5025824308E-002 
15400000000.000 +5.7783089578E-003 -1.7594145611E-002  -7.9206794500E-001 -5.6595331430E-001  -7.9144984484E-001 -5.6538200378E-001  +2.1620707121E-003 -1.6344383359E-002 
15600000000.000 +3.8852891885E-003 -1.3112700544E-002  -8.0968022346E-001 -5.3883802891E-001  -8.0840736628E-001 -5.4055434465E-001  +2.0863283426E-003 -1.1633864604E-002 
15800000000.000 +3.2157527748E-003 -1.4089962468E-002  -8.2629370689E-001 -5.1169192791E-001  -8.2491999865E-001 -5.1313167810E-001  +1.5885084867E-003 -1.1931803077E-002 
16000000000.000 +2.1791588515E-003 -1.5536714345E-002  -8.4265822172E-001 -4.8413982987E-001  -8.4208267927E-001 -4.8521146178E-001  -8.7264482863E-004 -1.3336838223E-002 
16200000000.000 +3.5892517772E-003 -1.6598943621E-002  -8.5707890987E-001 -4.5616510510E-001  -8.5725563765E-001 -4.5877587795E-001  +1.9618894439E-003 -1.4308209531E-002 
16400000000.000 +3.4562405199E-003 -1.2109309435E-002  -8.7101310492E-001 -4.2823806405E-001  -8.7083113194E-001 -4.3106350303E-001  +3.1043598428E-003 -1.0044061579E-002 
16600000000.000 -1.6509312263E-004 -1.4022919349E-002  -8.8598084450E-001 -3.9909428358E-001  -8.8436430693E-001 -4.0085062385E-001  -8.2303286763E-004 -1.1984311976E-002 
16800000000.000 +1.5971449902E-003 -1.5187255107E-002  -8.9742314816E-001 -3.7103870511E-001  -8.9799350500E-001 -3.7148541212E-001  -1.0869274847E-003 -1.2762049213E-002 
17000000000.000 +1.7403902020E-003 -1.2099966407E-002  -9.0836548805E-001 -3.4266558290E-001  -9.0853035450E-001 -3.4176602960E-001  +2.7478481643E-003 -1.1535386555E-002 
17200000000.000 +9.9861214403E-004 -1.3152999803E-002  -9.1946703196E-001 -3.1094327569E-001  -9.1978937387E-001 -3.1315737963E-001  +3.0860018451E-003 -1.1357326061E-002 
17400000000.000 -3.1452559051E-004 -1.3891909271E-002  -9.2864167690E-001 -2.8172457218E-001  -9.2850548029E-001 -2.8338897228E-001  -6.8331242073E-004 -1.0376653634E-002 
17600000000.000 +2.6760271285E-003 -1.2990831397E-002  -9.3808698654E-001 -2.4946893752E-001  -9.3872034550E-001 -2.5270944834E-001  +1.1552760843E-003 -9.3164360151E-003 
17800000000.000 +2.7930224314E-003 -9.0895388275E-003  -9.4569611549E-001 -2.2077080607E-001  -9.4518166780E-001 -2.2096028924E-001  +2.6135828812E-003 -8.0724311993E-003 
18000000000.000 -1.3597507495E-003 -1.2981884181E-002  -9.5132678747E-001 -1.8846338987E-001  -9.5272707939E-001 -1.8977902830E-001  -1.4930525795E-003 -8.2905245945E-003 
18200000000.000 +2.1722239908E-003 -1.2852647342E-002  -9.5844346285E-001 -1.5843884647E-001  -9.5793086290E-001 -1.6058951616E-001  -2.5814420078E-003 -9.6776606515E-003 
18400000000.000 +2.0486076828E-003 -5.7109333575E-003  -9.6263968945E-001 -1.2706162035E-001  -9.6233958006E-001 -1.2859874964E-001  +2.8331661597E-003 -5.0919614732E-003 
18600000000.000 +2.8387381462E-004 -7.9830428585E-003  -9.6544784307E-001 -9.4900533557E-002  -9.6641433239E-001 -9.7555756569E-002  +1.6526735271E-004 -7.0515447296E-003 
18800000000.000 -3.1596291810E-003 -1.1526372284E-002  -9.6795916557E-001 -6.2917411327E-002  -9.6863585711E-001 -6.4665198326E-002  -2.5526387617E-003 -1.0543293320E-002 
19000000000.000 +1.6731118085E-003 -1.1535516940E-002  -9.6992784739E-001 -3.1243665144E-002  -9.7091048956E-001 -3.2965153456E-002  +2.6975400397E-004 -1.0525039397E-002 
19200000000.000 +1.9250251353E-003 -3.4428839572E-003  -9.7147548199E-001 -1.1742673814E-003  -9.7542303801E-001 -1.5105698258E-003  +6.2903524376E-003 -6.1027044430E-003 
19400000000.000 -5.9396191500E-003 -1.0689049028E-002  -9.7125393152E-001 +2.9791051522E-002  -9.7544497252E-001 +3.0502067879E-002  -3.3944582101E-003 -8.0877970904E-003 
19600000000.000 -6.8440352334E-004 -1.1254020967E-002  -9.6712523699E-001 +6.2943957746E-002  -9.7249573469E-001 +6.2824077904E-002  -1.6351822997E-003 -1.1458972469E-002 
19800000000.000 +1.0788851650E-003 -7.6203392819E-003  -9.6497249603E-001 +9.4059139490E-002  -9.6969759464E-001 +9.3507997692E-002  +3.0948815402E-003 -9.0672885999E-003 
20000000000.000 +6.5622566035E-004 -8.0304890871E-003  -9.6014970541E-001 +1.2755519152E-001  -9.6503984928E-001 +1.2602813542E-001  +2.0932520274E-003 -9.6303494647E-003 
20200000000.000 -3.2549656462E-003 -9.0393973514E-003  -9.5586556196E-001 +1.5738211572E-001  -9.5942044258E-001 +1.5674458444E-001  -4.5556557598E-004 -7.6626446098E-003 
20400000000.000 +1.4112115605E-003 -9.2870593071E-003  -9.5106512308E-001 +1.8767370284E-001  -9.5494514704E-001 +1.8801036477E-001  +2.0367912948E-003 -9.3291336671E-003 
20600000000.000 +9.8386243917E-004 -5.7059400715E-003  -9.4358021021E-001 +2.1986779571E-001  -9.4771206379E-001 +2.1962490678E-001  +3.4771414939E-003 -8.5748499259E-003 
20800000000.000 -2.3822439834E-003 -9.7143417224E-003  -9.3587321043E-001 +2.5113654137E-001  -9.4009429216E-001 +2.5026252866E-001  -7.3254073504E-004 -7.1930475533E-003 
21000000000.000 +1.6763375606E-003 -4.6185036190E-003  -9.2729312181E-001 +2.7910539508E-001  -9.3094873428E-001 +2.8061833978E-001  +3.5270347726E-003 -5.0582396798E-003 
21200000000.000 -4.6644257964E-004 -4.1073681787E-003  -9.1632515192E-001 +3.1045362353E-001  -9.2159861326E-001 +3.1046721339E-001  -3.1810821383E-005 -3.4827154595E-003 
21400000000.000 -2.5730628986E-003 -8.9409714565E-003  -9.0631783009E-001 +3.3915966749E-001  -9.1039860249E-001 +3.3983656764E-001  -4.1162907146E-003 -1.1141440831E-002 
21600000000.000 -2.5955536403E-003 -6.2861097977E-003  -8.9443802834E-001 +3.7112939358E-001  -8.9855241776E-001 +3.7133941054E-001  -5.5629346753E-004 -7.8070657328E-003 
21800000000.000 -2.7022135328E-004 -4.1963816620E-003  -8.8242262602E-001 +3.9964917302E-001  -8.8243955374E-001 +3.9855328202E-001  +6.4236555772E-005 -7.4888379313E-003 
22000000000.000 -1.4018904185E-003 -3.0474327505E-003  -8.6986929178E-001 +4.2893430591E-001  -8.6941492558E-001 +4.2501085997E-001  +8.6311093764E-004 -8.4039689973E-003 
22200000000.000 -7.3714014143E-003 -1.1653086171E-002  -8.5723137856E-001 +4.5482411981E-001  -8.5559189320E-001 +4.5267906785E-001  -6.0814744793E-003 -1.0037502274E-002 
22400000000.000 -6.5502716461E-004 -6.8711526692E-003  -8.3923339844E-001 +4.8236185312E-001  -8.3969730139E-001 +4.8055985570E-001  +2.4117727298E-003 -1.0382031091E-002 
22600000000.000 +2.6089741732E-004 -1.7309077084E-003  -8.2092851400E-001 +5.1080083847E-001  -8.2343399525E-001 +5.0779533386E-001  +2.9941408429E-003 -3.1562547665E-003 
22800000000.000 -2.1787104197E-003 -6.1183273792E-003  -8.0237293243E-001 +5.3673994541E-001  -8.0417203903E-001 +5.3572785854E-001  -1.2017717818E-003 -8.1465914845E-003 
